 time            v(Clk)          v(Wr)           v(R0)           v(R1)           v(R2)           v(R3)           v(A0)           v(A1)           v(A2)           v(A3)           v(Xmain@0.net@117)
 2.98000000e-14  8.00000000e-01  8.00000000e-01  5.30815456e-01  5.30815456e-01  5.30815456e-01  5.30815456e-01  0.00000000e+00  0.00000000e+00  0.00000000e+00  0.00000000e+00  4.02603485e-01 
 5.96000000e-14  8.00000000e-01  8.00000000e-01  5.30684415e-01  5.30684415e-01  5.30684415e-01  5.30684415e-01  0.00000000e+00  0.00000000e+00  0.00000000e+00  0.00000000e+00  4.03471015e-01 
 1.19200000e-13  8.00000000e-01  8.00000000e-01  5.29604831e-01  5.29604831e-01  5.29604831e-01  5.29604831e-01  0.00000000e+00  0.00000000e+00  0.00000000e+00  0.00000000e+00  4.02789405e-01 
 2.38400000e-13  8.00000000e-01  8.00000000e-01  5.27375992e-01  5.27375992e-01  5.27375992e-01  5.27375992e-01  0.00000000e+00  0.00000000e+00  0.00000000e+00  0.00000000e+00  4.01237683e-01 
 4.76800000e-13  8.00000000e-01  8.00000000e-01  5.22717084e-01  5.22717084e-01  5.22717084e-01  5.22717084e-01  0.00000000e+00  0.00000000e+00  0.00000000e+00  0.00000000e+00  3.98665040e-01 
 9.53600000e-13  8.00000000e-01  8.00000000e-01  5.12818722e-01  5.12818722e-01  5.12818722e-01  5.12818722e-01  0.00000000e+00  0.00000000e+00  0.00000000e+00  0.00000000e+00  3.94131326e-01 
 1.90720000e-12  8.00000000e-01  8.00000000e-01  4.92500943e-01  4.92500943e-01  4.92500943e-01  4.92500943e-01  0.00000000e+00  0.00000000e+00  0.00000000e+00  0.00000000e+00  3.87534113e-01 
 2.98000000e-12  8.00000000e-01  8.00000000e-01  4.70911804e-01  4.70911804e-01  4.70911804e-01  4.70911804e-01  0.00000000e+00  0.00000000e+00  0.00000000e+00  0.00000000e+00  3.81830743e-01 
 3.17072000e-12  8.00000000e-01  8.00000000e-01  4.67367951e-01  4.67367951e-01  4.67367951e-01  4.67367951e-01  0.00000000e+00  0.00000000e+00  0.00000000e+00  0.00000000e+00  3.80971866e-01 
 3.55216000e-12  8.00000000e-01  8.00000000e-01  4.60429645e-01  4.60429645e-01  4.60429645e-01  4.60429645e-01  0.00000000e+00  0.00000000e+00  0.00000000e+00  0.00000000e+00  3.79164393e-01 
 4.31504000e-12  8.00000000e-01  8.00000000e-01  4.47400829e-01  4.47400829e-01  4.47400829e-01  4.47400829e-01  0.00000000e+00  0.00000000e+00  0.00000000e+00  0.00000000e+00  3.75152067e-01 
 5.84080000e-12  8.00000000e-01  8.00000000e-01  4.23874691e-01  4.23874691e-01  4.23874691e-01  4.23874691e-01  0.00000000e+00  0.00000000e+00  0.00000000e+00  0.00000000e+00  3.62328149e-01 
 8.82080000e-12  8.00000000e-01  8.00000000e-01  3.81718099e-01  3.81718099e-01  3.81718099e-01  3.81718099e-01  0.00000000e+00  0.00000000e+00  0.00000000e+00  0.00000000e+00  3.08873405e-01 
 1.18008000e-11  8.00000000e-01  8.00000000e-01  3.34693896e-01  3.34693897e-01  3.34693897e-01  3.34693897e-01  0.00000000e+00  0.00000000e+00  0.00000000e+00  0.00000000e+00  2.24100457e-01 
 1.47808000e-11  8.00000000e-01  8.00000000e-01  2.65875057e-01  2.65875057e-01  2.65875057e-01  2.65875057e-01  0.00000000e+00  0.00000000e+00  0.00000000e+00  0.00000000e+00  1.27315650e-01 
 1.77608000e-11  8.00000000e-01  8.00000000e-01  1.70604530e-01  1.70604530e-01  1.70604530e-01  1.70604530e-01  0.00000000e+00  0.00000000e+00  0.00000000e+00  0.00000000e+00  4.95540541e-02 
 2.07408000e-11  8.00000000e-01  8.00000000e-01  7.89729483e-02  7.89729482e-02  7.89729482e-02  7.89729483e-02  0.00000000e+00  0.00000000e+00  0.00000000e+00  0.00000000e+00  1.36423440e-02 
 2.37208000e-11  8.00000000e-01  8.00000000e-01  2.64283047e-02  2.64283047e-02  2.64283047e-02  2.64283047e-02  0.00000000e+00  0.00000000e+00  0.00000000e+00  0.00000000e+00  4.87893740e-03 
 2.67008000e-11  8.00000000e-01  8.00000000e-01  8.38952519e-03  8.38952519e-03  8.38952519e-03  8.38952520e-03  0.00000000e+00  0.00000000e+00  0.00000000e+00  0.00000000e+00  2.74120573e-03 
 2.96808000e-11  8.00000000e-01  8.00000000e-01  2.86517573e-03  2.86517573e-03  2.86517573e-03  2.86517573e-03  0.00000000e+00  0.00000000e+00  0.00000000e+00  0.00000000e+00  1.85757197e-03 
 3.26608000e-11  8.00000000e-01  8.00000000e-01  1.15860671e-03  1.15860671e-03  1.15860671e-03  1.15860670e-03  0.00000000e+00  0.00000000e+00  0.00000000e+00  0.00000000e+00  1.31580121e-03 
 3.56408000e-11  8.00000000e-01  8.00000000e-01  6.16914090e-04  6.16914092e-04  6.16914090e-04  6.16914094e-04  0.00000000e+00  0.00000000e+00  0.00000000e+00  0.00000000e+00  9.33750994e-04 
 3.86208000e-11  8.00000000e-01  8.00000000e-01  4.43905756e-04  4.43905756e-04  4.43905754e-04  4.43905756e-04  0.00000000e+00  0.00000000e+00  0.00000000e+00  0.00000000e+00  7.54401073e-04 
 4.16008000e-11  8.00000000e-01  8.00000000e-01  3.75694180e-04  3.75694179e-04  3.75694179e-04  3.75694176e-04  0.00000000e+00  0.00000000e+00  0.00000000e+00  0.00000000e+00  6.28453026e-04 
 4.45808000e-11  8.00000000e-01  8.00000000e-01  3.08896240e-04  3.08896242e-04  3.08896244e-04  3.08896238e-04  0.00000000e+00  0.00000000e+00  0.00000000e+00  0.00000000e+00  5.10163363e-04 
 4.75608000e-11  8.00000000e-01  8.00000000e-01  2.34223655e-04  2.34223658e-04  2.34223657e-04  2.34223659e-04  0.00000000e+00  0.00000000e+00  0.00000000e+00  0.00000000e+00  3.78307246e-04 
 5.05408000e-11  8.00000000e-01  8.00000000e-01  1.68509217e-04  1.68509217e-04  1.68509215e-04  1.68509217e-04  0.00000000e+00  0.00000000e+00  0.00000000e+00  0.00000000e+00  2.77103187e-04 
 5.35208000e-11  8.00000000e-01  8.00000000e-01  1.54867662e-04  1.54867660e-04  1.54867662e-04  1.54867661e-04  0.00000000e+00  0.00000000e+00  0.00000000e+00  0.00000000e+00  2.08007463e-04 
 5.65008000e-11  8.00000000e-01  8.00000000e-01  2.01686201e-04  2.01686203e-04  2.01686202e-04  2.01686203e-04  0.00000000e+00  0.00000000e+00  0.00000000e+00  0.00000000e+00  1.61008255e-04 
 5.94808000e-11  8.00000000e-01  8.00000000e-01  2.15624880e-04  2.15624880e-04  2.15624879e-04  2.15624881e-04  0.00000000e+00  0.00000000e+00  0.00000000e+00  0.00000000e+00  1.25195886e-04 
 6.24608000e-11  8.00000000e-01  8.00000000e-01  1.86297607e-04  1.86297605e-04  1.86297606e-04  1.86297606e-04  0.00000000e+00  0.00000000e+00  0.00000000e+00  0.00000000e+00  9.78066375e-05 
 6.54408000e-11  8.00000000e-01  8.00000000e-01  1.68703832e-04  1.68703830e-04  1.68703830e-04  1.68703832e-04  0.00000000e+00  0.00000000e+00  0.00000000e+00  0.00000000e+00  8.21210553e-05 
 6.84208000e-11  8.00000000e-01  8.00000000e-01  1.60101731e-04  1.60101729e-04  1.60101729e-04  1.60101729e-04  0.00000000e+00  0.00000000e+00  0.00000000e+00  0.00000000e+00  7.12520829e-05 
 7.14008000e-11  8.00000000e-01  8.00000000e-01  1.54165184e-04  1.54165186e-04  1.54165186e-04  1.54165181e-04  0.00000000e+00  0.00000000e+00  0.00000000e+00  0.00000000e+00  6.37506194e-05 
 7.43808000e-11  8.00000000e-01  8.00000000e-01  1.48880388e-04  1.48880392e-04  1.48880391e-04  1.48880390e-04  0.00000000e+00  0.00000000e+00  0.00000000e+00  0.00000000e+00  5.74700848e-05 
 7.73608000e-11  8.00000000e-01  8.00000000e-01  1.44202491e-04  1.44202491e-04  1.44202490e-04  1.44202492e-04  0.00000000e+00  0.00000000e+00  0.00000000e+00  0.00000000e+00  5.32022656e-05 
 8.03408000e-11  8.00000000e-01  8.00000000e-01  1.40083136e-04  1.40083134e-04  1.40083133e-04  1.40083136e-04  0.00000000e+00  0.00000000e+00  0.00000000e+00  0.00000000e+00  4.93459831e-05 
 8.33208000e-11  8.00000000e-01  8.00000000e-01  1.36553327e-04  1.36553325e-04  1.36553326e-04  1.36553327e-04  0.00000000e+00  0.00000000e+00  0.00000000e+00  0.00000000e+00  4.69883457e-05 
 8.63008000e-11  8.00000000e-01  8.00000000e-01  1.33486552e-04  1.33486552e-04  1.33486552e-04  1.33486553e-04  0.00000000e+00  0.00000000e+00  0.00000000e+00  0.00000000e+00  4.45987510e-05 
 8.92808000e-11  8.00000000e-01  8.00000000e-01  1.30842209e-04  1.30842213e-04  1.30842212e-04  1.30842209e-04  0.00000000e+00  0.00000000e+00  0.00000000e+00  0.00000000e+00  4.33539553e-05 
 9.22608000e-11  8.00000000e-01  8.00000000e-01  1.28514003e-04  1.28514002e-04  1.28514004e-04  1.28514000e-04  0.00000000e+00  0.00000000e+00  0.00000000e+00  0.00000000e+00  4.18019771e-05 
 9.52408000e-11  8.00000000e-01  8.00000000e-01  1.26470842e-04  1.26470839e-04  1.26470840e-04  1.26470842e-04  0.00000000e+00  0.00000000e+00  0.00000000e+00  0.00000000e+00  4.11863117e-05 
 9.82208000e-11  8.00000000e-01  8.00000000e-01  1.24641958e-04  1.24641957e-04  1.24641955e-04  1.24641958e-04  0.00000000e+00  0.00000000e+00  0.00000000e+00  0.00000000e+00  4.01051974e-05 
 1.01200800e-10  8.00000000e-01  8.00000000e-01  1.23011965e-04  1.23011966e-04  1.23011965e-04  1.23011964e-04  0.00000000e+00  0.00000000e+00  0.00000000e+00  0.00000000e+00  3.98412273e-05 
 1.04180800e-10  8.00000000e-01  8.00000000e-01  1.21532988e-04  1.21532989e-04  1.21532989e-04  1.21532992e-04  0.00000000e+00  0.00000000e+00  0.00000000e+00  0.00000000e+00  3.90243063e-05 
 1.07160800e-10  8.00000000e-01  8.00000000e-01  1.20199793e-04  1.20199792e-04  1.20199793e-04  1.20199798e-04  0.00000000e+00  0.00000000e+00  0.00000000e+00  0.00000000e+00  3.89654761e-05 
 1.10140800e-10  8.00000000e-01  8.00000000e-01  1.18975395e-04  1.18975394e-04  1.18975397e-04  1.18975393e-04  0.00000000e+00  0.00000000e+00  0.00000000e+00  0.00000000e+00  3.82988586e-05 
 1.13120800e-10  8.00000000e-01  8.00000000e-01  1.17861663e-04  1.17861663e-04  1.17861663e-04  1.17861663e-04  0.00000000e+00  0.00000000e+00  0.00000000e+00  0.00000000e+00  3.83432318e-05 
 1.16100800e-10  8.00000000e-01  8.00000000e-01  1.16830650e-04  1.16830647e-04  1.16830647e-04  1.16830649e-04  0.00000000e+00  0.00000000e+00  0.00000000e+00  0.00000000e+00  3.77639845e-05 
 1.19080800e-10  8.00000000e-01  8.00000000e-01  1.15885739e-04  1.15885738e-04  1.15885737e-04  1.15885737e-04  0.00000000e+00  0.00000000e+00  0.00000000e+00  0.00000000e+00  3.78747713e-05 
 1.22060800e-10  8.00000000e-01  8.00000000e-01  1.15004060e-04  1.15004061e-04  1.15004060e-04  1.15004061e-04  0.00000000e+00  0.00000000e+00  0.00000000e+00  0.00000000e+00  3.73544790e-05 
 1.25040800e-10  8.00000000e-01  8.00000000e-01  1.14191592e-04  1.14191595e-04  1.14191595e-04  1.14191594e-04  0.00000000e+00  0.00000000e+00  0.00000000e+00  0.00000000e+00  3.75070591e-05 
 1.28020800e-10  8.00000000e-01  8.00000000e-01  1.13428386e-04  1.13428387e-04  1.13428387e-04  1.13428385e-04  0.00000000e+00  0.00000000e+00  0.00000000e+00  0.00000000e+00  3.70125693e-05 
 1.31000800e-10  8.00000000e-01  8.00000000e-01  1.12722054e-04  1.12722054e-04  1.12722053e-04  1.12722053e-04  0.00000000e+00  0.00000000e+00  0.00000000e+00  0.00000000e+00  3.71883546e-05 
 1.33980800e-10  8.00000000e-01  8.00000000e-01  1.12054511e-04  1.12054510e-04  1.12054510e-04  1.12054510e-04  0.00000000e+00  0.00000000e+00  0.00000000e+00  0.00000000e+00  3.67173137e-05 
 1.36960800e-10  8.00000000e-01  8.00000000e-01  1.11434597e-04  1.11434596e-04  1.11434598e-04  1.11434598e-04  0.00000000e+00  0.00000000e+00  0.00000000e+00  0.00000000e+00  3.69106436e-05 
 1.39940800e-10  8.00000000e-01  8.00000000e-01  1.10845539e-04  1.10845535e-04  1.10845537e-04  1.10845540e-04  0.00000000e+00  0.00000000e+00  0.00000000e+00  0.00000000e+00  3.64558570e-05 
 1.42000000e-10  8.00000000e-01  8.00000000e-01  1.10464155e-04  1.10464153e-04  1.10464153e-04  1.10464153e-04  0.00000000e+00  0.00000000e+00  0.00000000e+00  0.00000000e+00  3.66984717e-05 
 1.42298000e-10  7.82971429e-01  8.00000000e-01  1.10408048e-04  1.10408046e-04  1.10408046e-04  1.10408044e-04  0.00000000e+00  0.00000000e+00  0.00000000e+00  0.00000000e+00  3.63873728e-05 
 1.42894000e-10  7.48914286e-01  8.00000000e-01  1.10300568e-04  1.10300566e-04  1.10300566e-04  1.10300565e-04  0.00000000e+00  0.00000000e+00  0.00000000e+00  0.00000000e+00  3.63719536e-05 
 1.44086000e-10  6.80800000e-01  8.00000000e-01  1.10089339e-04  1.10089338e-04  1.10089338e-04  1.10089339e-04  0.00000000e+00  0.00000000e+00  0.00000000e+00  0.00000000e+00  3.65957580e-05 
 1.46470000e-10  5.44571429e-01  8.00000000e-01  1.09678773e-04  1.09678774e-04  1.09678772e-04  1.09678774e-04  0.00000000e+00  0.00000000e+00  0.00000000e+00  0.00000000e+00  3.64382512e-05 
 1.49450000e-10  3.74285714e-01  8.00000000e-01  1.09192500e-04  1.09192502e-04  1.09192500e-04  1.09192501e-04  0.00000000e+00  0.00000000e+00  0.00000000e+00  0.00000000e+00  3.68129128e-05 
 1.52430000e-10  2.04000000e-01  8.00000000e-01  1.08729234e-04  1.08729235e-04  1.08729237e-04  1.08729233e-04  0.00000000e+00  0.00000000e+00  0.00000000e+00  0.00000000e+00  3.50281492e-05 
 1.55410000e-10  3.37142857e-02  8.00000000e-01  1.08276611e-04  1.08276613e-04  1.08276614e-04  1.08276611e-04  0.00000000e+00  0.00000000e+00  0.00000000e+00  0.00000000e+00  8.99924237e-06 
 1.56000000e-10  0.00000000e+00  8.00000000e-01  1.08194676e-04  1.08194678e-04  1.08194677e-04  1.08194675e-04  0.00000000e+00  0.00000000e+00  0.00000000e+00  0.00000000e+00  1.10993299e-06 
 1.56298000e-10  0.00000000e+00  8.00000000e-01  1.08154599e-04  1.08154601e-04  1.08154600e-04  1.08154599e-04  0.00000000e+00  0.00000000e+00  0.00000000e+00  0.00000000e+00 -2.90611585e-06 
 1.56894000e-10  0.00000000e+00  8.00000000e-01  1.08080782e-04  1.08080784e-04  1.08080783e-04  1.08080782e-04  0.00000000e+00  0.00000000e+00  0.00000000e+00  0.00000000e+00 -8.51619819e-06 
 1.58086000e-10  0.00000000e+00  8.00000000e-01  1.07953573e-04  1.07953575e-04  1.07953572e-04  1.07953573e-04  0.00000000e+00  0.00000000e+00  0.00000000e+00  0.00000000e+00 -2.24405872e-06 
 1.60470000e-10  0.00000000e+00  8.00000000e-01  1.07697397e-04  1.07697398e-04  1.07697396e-04  1.07697397e-04  0.00000000e+00  0.00000000e+00  0.00000000e+00  0.00000000e+00  9.94376927e-05 
 1.63450000e-10  0.00000000e+00  8.00000000e-01  1.07199281e-04  1.07199278e-04  1.07199281e-04  1.07199282e-04  0.00000000e+00  0.00000000e+00  0.00000000e+00  0.00000000e+00  2.33273898e-04 
 1.66430000e-10  0.00000000e+00  8.00000000e-01  1.06630433e-04  1.06630433e-04  1.06630433e-04  1.06630437e-04  0.00000000e+00  0.00000000e+00  0.00000000e+00  0.00000000e+00  8.01361122e-05 
 1.69410000e-10  0.00000000e+00  8.00000000e-01  1.05707773e-04  1.05707772e-04  1.05707773e-04  1.05707770e-04  0.00000000e+00  0.00000000e+00  0.00000000e+00  0.00000000e+00 -1.27922438e-03 
 1.72390000e-10  0.00000000e+00  8.00000000e-01  1.05669778e-04  1.05669776e-04  1.05669778e-04  1.05669773e-04  0.00000000e+00  0.00000000e+00  0.00000000e+00  0.00000000e+00 -3.82126705e-03 
 1.75370000e-10  0.00000000e+00  8.00000000e-01  1.06772063e-04  1.06772064e-04  1.06772064e-04  1.06772066e-04  0.00000000e+00  0.00000000e+00  0.00000000e+00  0.00000000e+00 -5.69608165e-03 
 1.78350000e-10  0.00000000e+00  8.00000000e-01  1.11617670e-04  1.11617671e-04  1.11617670e-04  1.11617671e-04  0.00000000e+00  0.00000000e+00  0.00000000e+00  0.00000000e+00  6.42629956e-04 
 1.81330000e-10  0.00000000e+00  8.00000000e-01  1.31427356e-04  1.31427355e-04  1.31427356e-04  1.31427352e-04  0.00000000e+00  0.00000000e+00  0.00000000e+00  0.00000000e+00  4.25278220e-02 
 1.84310000e-10  0.00000000e+00  8.00000000e-01  1.42345011e-04  1.42345012e-04  1.42345013e-04  1.42345010e-04  0.00000000e+00  0.00000000e+00  0.00000000e+00  0.00000000e+00  1.39698431e-01 
 1.87290000e-10  0.00000000e+00  8.00000000e-01  8.96955064e-06  8.96955297e-06  8.96955123e-06  8.96955597e-06  0.00000000e+00  0.00000000e+00  0.00000000e+00  0.00000000e+00  2.77003855e-01 
 1.90270000e-10  0.00000000e+00  8.00000000e-01 -8.45937383e-04 -8.45937383e-04 -8.45937383e-04 -8.45937380e-04  0.00000000e+00  0.00000000e+00  0.00000000e+00  0.00000000e+00  4.26649279e-01 
 1.93250000e-10  0.00000000e+00  8.00000000e-01 -1.55808585e-03 -1.55808585e-03 -1.55808585e-03 -1.55808585e-03  0.00000000e+00  0.00000000e+00  0.00000000e+00  0.00000000e+00  5.57930057e-01 
 1.96230000e-10  0.00000000e+00  8.00000000e-01  5.91926038e-04  5.91926040e-04  5.91926038e-04  5.91926035e-04  0.00000000e+00  0.00000000e+00  0.00000000e+00  0.00000000e+00  6.60980211e-01 
 1.99210000e-10  0.00000000e+00  8.00000000e-01 -7.06378017e-05 -7.06377965e-05 -7.06377948e-05 -7.06378036e-05  0.00000000e+00  0.00000000e+00  0.00000000e+00  0.00000000e+00  7.33928017e-01 
 2.02190000e-10  0.00000000e+00  8.00000000e-01 -1.55643037e-02 -1.55643037e-02 -1.55643037e-02 -1.55643037e-02  0.00000000e+00  0.00000000e+00  0.00000000e+00  0.00000000e+00  7.73015952e-01 
 2.05170000e-10  0.00000000e+00  8.00000000e-01  6.17090788e-02  6.17090787e-02  6.17090787e-02  6.17090788e-02  0.00000000e+00  0.00000000e+00  0.00000000e+00  0.00000000e+00  7.88292651e-01 
 2.08150000e-10  0.00000000e+00  8.00000000e-01  3.02437132e-01  3.02437132e-01  3.02437132e-01  3.02437132e-01  0.00000000e+00  0.00000000e+00  0.00000000e+00  0.00000000e+00  7.94993399e-01 
 2.11130000e-10  0.00000000e+00  8.00000000e-01  5.62942102e-01  5.62942102e-01  5.62942102e-01  5.62942102e-01  0.00000000e+00  0.00000000e+00  0.00000000e+00  0.00000000e+00  7.97451955e-01 
 2.14110000e-10  0.00000000e+00  8.00000000e-01  7.17326569e-01  7.17326569e-01  7.17326569e-01  7.17326569e-01  0.00000000e+00  0.00000000e+00  0.00000000e+00  0.00000000e+00  7.98715087e-01 
 2.17090000e-10  0.00000000e+00  8.00000000e-01  7.77814182e-01  7.77814182e-01  7.77814182e-01  7.77814182e-01  0.00000000e+00  0.00000000e+00  0.00000000e+00  0.00000000e+00  7.99359983e-01 
 2.20070000e-10  0.00000000e+00  8.00000000e-01  7.94773941e-01  7.94773941e-01  7.94773941e-01  7.94773941e-01  0.00000000e+00  0.00000000e+00  0.00000000e+00  0.00000000e+00  7.99530409e-01 
 2.23050000e-10  0.00000000e+00  8.00000000e-01  7.98356326e-01  7.98356326e-01  7.98356326e-01  7.98356326e-01  0.00000000e+00  0.00000000e+00  0.00000000e+00  0.00000000e+00  7.99677767e-01 
 2.26030000e-10  0.00000000e+00  8.00000000e-01  7.99671310e-01  7.99671310e-01  7.99671310e-01  7.99671310e-01  0.00000000e+00  0.00000000e+00  0.00000000e+00  0.00000000e+00  7.99774910e-01 
 2.29010000e-10  0.00000000e+00  8.00000000e-01  7.99791847e-01  7.99791847e-01  7.99791847e-01  7.99791847e-01  0.00000000e+00  0.00000000e+00  0.00000000e+00  0.00000000e+00  7.99833725e-01 
 2.31990000e-10  0.00000000e+00  8.00000000e-01  7.99955898e-01  7.99955898e-01  7.99955898e-01  7.99955898e-01  0.00000000e+00  0.00000000e+00  0.00000000e+00  0.00000000e+00  7.99884461e-01 
 2.34970000e-10  0.00000000e+00  8.00000000e-01  7.99921277e-01  7.99921277e-01  7.99921277e-01  7.99921277e-01  0.00000000e+00  0.00000000e+00  0.00000000e+00  0.00000000e+00  7.99910310e-01 
 2.37950000e-10  0.00000000e+00  8.00000000e-01  7.99958735e-01  7.99958735e-01  7.99958735e-01  7.99958735e-01  0.00000000e+00  0.00000000e+00  0.00000000e+00  0.00000000e+00  7.99927070e-01 
 2.40930000e-10  0.00000000e+00  8.00000000e-01  7.99940182e-01  7.99940182e-01  7.99940182e-01  7.99940182e-01  0.00000000e+00  0.00000000e+00  0.00000000e+00  0.00000000e+00  7.99933356e-01 
 2.43910000e-10  0.00000000e+00  8.00000000e-01  7.99952803e-01  7.99952803e-01  7.99952803e-01  7.99952803e-01  0.00000000e+00  0.00000000e+00  0.00000000e+00  0.00000000e+00  7.99939008e-01 
 2.46890000e-10  0.00000000e+00  8.00000000e-01  7.99944928e-01  7.99944928e-01  7.99944928e-01  7.99944928e-01  0.00000000e+00  0.00000000e+00  0.00000000e+00  0.00000000e+00  7.99939382e-01 
 2.49870000e-10  0.00000000e+00  8.00000000e-01  7.99950228e-01  7.99950228e-01  7.99950228e-01  7.99950228e-01  0.00000000e+00  0.00000000e+00  0.00000000e+00  0.00000000e+00  7.99940125e-01 
 2.52850000e-10  0.00000000e+00  8.00000000e-01  7.99946658e-01  7.99946658e-01  7.99946658e-01  7.99946658e-01  0.00000000e+00  0.00000000e+00  0.00000000e+00  0.00000000e+00  7.99939045e-01 
 2.55830000e-10  0.00000000e+00  8.00000000e-01  7.99949103e-01  7.99949103e-01  7.99949103e-01  7.99949103e-01  0.00000000e+00  0.00000000e+00  0.00000000e+00  0.00000000e+00  7.99939892e-01 
