 time            v(Clk)          v(Wr)           v(R0)           v(R1)           v(R2)           v(R3)           v(A0)           v(A1)           v(A2)           v(A3)           v(Xmain@0.net@117)
 2.96000000e-14  8.00000000e-01  8.00000000e-01  5.30816315e-01  5.30816315e-01  5.30816315e-01  5.30816315e-01  0.00000000e+00  0.00000000e+00  0.00000000e+00  0.00000000e+00  4.02597594e-01 
 5.92000000e-14  8.00000000e-01  8.00000000e-01  5.30691656e-01  5.30691656e-01  5.30691656e-01  5.30691656e-01  0.00000000e+00  0.00000000e+00  0.00000000e+00  0.00000000e+00  4.03475586e-01 
 1.18400000e-13  8.00000000e-01  8.00000000e-01  5.29619582e-01  5.29619582e-01  5.29619582e-01  5.29619582e-01  0.00000000e+00  0.00000000e+00  0.00000000e+00  0.00000000e+00  4.02800057e-01 
 2.36800000e-13  8.00000000e-01  8.00000000e-01  5.27406400e-01  5.27406400e-01  5.27406400e-01  5.27406400e-01  0.00000000e+00  0.00000000e+00  0.00000000e+00  0.00000000e+00  4.01256103e-01 
 4.73600000e-13  8.00000000e-01  8.00000000e-01  5.22781315e-01  5.22781315e-01  5.22781315e-01  5.22781315e-01  0.00000000e+00  0.00000000e+00  0.00000000e+00  0.00000000e+00  3.98698980e-01 
 9.47200000e-13  8.00000000e-01  8.00000000e-01  5.12954608e-01  5.12954608e-01  5.12954608e-01  5.12954608e-01  0.00000000e+00  0.00000000e+00  0.00000000e+00  0.00000000e+00  3.94184329e-01 
 1.89440000e-12  8.00000000e-01  8.00000000e-01  4.92769515e-01  4.92769515e-01  4.92769515e-01  4.92769515e-01  0.00000000e+00  0.00000000e+00  0.00000000e+00  0.00000000e+00  3.87611089e-01 
 2.96000000e-12  8.00000000e-01  8.00000000e-01  4.71293089e-01  4.71293089e-01  4.71293089e-01  4.71293089e-01  0.00000000e+00  0.00000000e+00  0.00000000e+00  0.00000000e+00  3.81929727e-01 
 3.14944000e-12  8.00000000e-01  8.00000000e-01  4.67764616e-01  4.67764616e-01  4.67764616e-01  4.67764616e-01  0.00000000e+00  0.00000000e+00  0.00000000e+00  0.00000000e+00  3.81077400e-01 
 3.52832000e-12  8.00000000e-01  8.00000000e-01  4.60855467e-01  4.60855467e-01  4.60855467e-01  4.60855467e-01  0.00000000e+00  0.00000000e+00  0.00000000e+00  0.00000000e+00  3.79284734e-01 
 4.28608000e-12  8.00000000e-01  8.00000000e-01  4.47878175e-01  4.47878175e-01  4.47878175e-01  4.47878175e-01  0.00000000e+00  0.00000000e+00  0.00000000e+00  0.00000000e+00  3.75327363e-01 
 5.80160000e-12  8.00000000e-01  8.00000000e-01  4.24447887e-01  4.24447887e-01  4.24447887e-01  4.24447887e-01  0.00000000e+00  0.00000000e+00  0.00000000e+00  0.00000000e+00  3.62774433e-01 
 8.76160000e-12  8.00000000e-01  8.00000000e-01  3.82562949e-01  3.82562949e-01  3.82562949e-01  3.82562949e-01  0.00000000e+00  0.00000000e+00  0.00000000e+00  0.00000000e+00  3.10301004e-01 
 1.17216000e-11  8.00000000e-01  8.00000000e-01  3.36174305e-01  3.36174305e-01  3.36174305e-01  3.36174305e-01  0.00000000e+00  0.00000000e+00  0.00000000e+00  0.00000000e+00  2.26613439e-01 
 1.46816000e-11  8.00000000e-01  8.00000000e-01  2.68773132e-01  2.68773132e-01  2.68773132e-01  2.68773132e-01  0.00000000e+00  0.00000000e+00  0.00000000e+00  0.00000000e+00  1.30445495e-01 
 1.76416000e-11  8.00000000e-01  8.00000000e-01  1.74753988e-01  1.74753988e-01  1.74753988e-01  1.74753988e-01  0.00000000e+00  0.00000000e+00  0.00000000e+00  0.00000000e+00  5.18921020e-02 
 2.06016000e-11  8.00000000e-01  8.00000000e-01  8.25933006e-02  8.25933006e-02  8.25933007e-02  8.25933005e-02  0.00000000e+00  0.00000000e+00  0.00000000e+00  0.00000000e+00  1.45053510e-02 
 2.35616000e-11  8.00000000e-01  8.00000000e-01  2.81828435e-02  2.81828435e-02  2.81828435e-02  2.81828435e-02  0.00000000e+00  0.00000000e+00  0.00000000e+00  0.00000000e+00  5.09753872e-03 
 2.65216000e-11  8.00000000e-01  8.00000000e-01  8.97988599e-03  8.97988599e-03  8.97988600e-03  8.97988598e-03  0.00000000e+00  0.00000000e+00  0.00000000e+00  0.00000000e+00  2.82029081e-03 
 2.94816000e-11  8.00000000e-01  8.00000000e-01  3.09299290e-03  3.09299290e-03  3.09299291e-03  3.09299290e-03  0.00000000e+00  0.00000000e+00  0.00000000e+00  0.00000000e+00  1.90095018e-03 
 3.24416000e-11  8.00000000e-01  8.00000000e-01  1.22218378e-03  1.22218378e-03  1.22218378e-03  1.22218378e-03  0.00000000e+00  0.00000000e+00  0.00000000e+00  0.00000000e+00  1.35213140e-03 
 3.54016000e-11  8.00000000e-01  8.00000000e-01  6.51505610e-04  6.51505613e-04  6.51505610e-04  6.51505612e-04  0.00000000e+00  0.00000000e+00  0.00000000e+00  0.00000000e+00  9.55820470e-04 
 3.83616000e-11  8.00000000e-01  8.00000000e-01  4.47315377e-04  4.47315377e-04  4.47315376e-04  4.47315377e-04  0.00000000e+00  0.00000000e+00  0.00000000e+00  0.00000000e+00  7.66699664e-04 
 4.13216000e-11  8.00000000e-01  8.00000000e-01  3.86230467e-04  3.86230469e-04  3.86230470e-04  3.86230468e-04  0.00000000e+00  0.00000000e+00  0.00000000e+00  0.00000000e+00  6.39153658e-04 
 4.42816000e-11  8.00000000e-01  8.00000000e-01  3.13080839e-04  3.13080838e-04  3.13080838e-04  3.13080837e-04  0.00000000e+00  0.00000000e+00  0.00000000e+00  0.00000000e+00  5.23370951e-04 
 4.72416000e-11  8.00000000e-01  8.00000000e-01  2.44636518e-04  2.44636517e-04  2.44636516e-04  2.44636515e-04  0.00000000e+00  0.00000000e+00  0.00000000e+00  0.00000000e+00  3.91362784e-04 
 5.02016000e-11  8.00000000e-01  8.00000000e-01  1.72886063e-04  1.72886066e-04  1.72886066e-04  1.72886067e-04  0.00000000e+00  0.00000000e+00  0.00000000e+00  0.00000000e+00  2.87010382e-04 
 5.31616000e-11  8.00000000e-01  8.00000000e-01  1.53530031e-04  1.53530031e-04  1.53530033e-04  1.53530033e-04  0.00000000e+00  0.00000000e+00  0.00000000e+00  0.00000000e+00  2.15039748e-04 
 5.61216000e-11  8.00000000e-01  8.00000000e-01  1.94449279e-04  1.94449276e-04  1.94449278e-04  1.94449279e-04  0.00000000e+00  0.00000000e+00  0.00000000e+00  0.00000000e+00  1.66222821e-04 
 5.90816000e-11  8.00000000e-01  8.00000000e-01  2.18342783e-04  2.18342783e-04  2.18342784e-04  2.18342785e-04  0.00000000e+00  0.00000000e+00  0.00000000e+00  0.00000000e+00  1.29646199e-04 
 6.20416000e-11  8.00000000e-01  8.00000000e-01  1.89674552e-04  1.89674553e-04  1.89674554e-04  1.89674551e-04  0.00000000e+00  0.00000000e+00  0.00000000e+00  0.00000000e+00  1.00913928e-04 
 6.50016000e-11  8.00000000e-01  8.00000000e-01  1.70846619e-04  1.70846618e-04  1.70846621e-04  1.70846616e-04  0.00000000e+00  0.00000000e+00  0.00000000e+00  0.00000000e+00  8.40306607e-05 
 6.79616000e-11  8.00000000e-01  8.00000000e-01  1.60933542e-04  1.60933542e-04  1.60933542e-04  1.60933543e-04  0.00000000e+00  0.00000000e+00  0.00000000e+00  0.00000000e+00  7.26940584e-05 
 7.09216000e-11  8.00000000e-01  8.00000000e-01  1.55289585e-04  1.55289587e-04  1.55289583e-04  1.55289589e-04  0.00000000e+00  0.00000000e+00  0.00000000e+00  0.00000000e+00  6.48740317e-05 
 7.38816000e-11  8.00000000e-01  8.00000000e-01  1.49582713e-04  1.49582715e-04  1.49582710e-04  1.49582710e-04  0.00000000e+00  0.00000000e+00  0.00000000e+00  0.00000000e+00  5.83720338e-05 
 7.68416000e-11  8.00000000e-01  8.00000000e-01  1.45110402e-04  1.45110402e-04  1.45110400e-04  1.45110398e-04  0.00000000e+00  0.00000000e+00  0.00000000e+00  0.00000000e+00  5.39277121e-05 
 7.98016000e-11  8.00000000e-01  8.00000000e-01  1.40705358e-04  1.40705359e-04  1.40705359e-04  1.40705360e-04  0.00000000e+00  0.00000000e+00  0.00000000e+00  0.00000000e+00  4.99188149e-05 
 8.27616000e-11  8.00000000e-01  8.00000000e-01  1.37254817e-04  1.37254816e-04  1.37254818e-04  1.37254818e-04  0.00000000e+00  0.00000000e+00  0.00000000e+00  0.00000000e+00  4.74450521e-05 
 8.57216000e-11  8.00000000e-01  8.00000000e-01  1.34006206e-04  1.34006203e-04  1.34006206e-04  1.34006205e-04  0.00000000e+00  0.00000000e+00  0.00000000e+00  0.00000000e+00  4.49587401e-05 
 8.86816000e-11  8.00000000e-01  8.00000000e-01  1.31391019e-04  1.31391017e-04  1.31391018e-04  1.31391021e-04  0.00000000e+00  0.00000000e+00  0.00000000e+00  0.00000000e+00  4.36425506e-05 
 9.16416000e-11  8.00000000e-01  8.00000000e-01  1.28951979e-04  1.28951978e-04  1.28951977e-04  1.28951977e-04  0.00000000e+00  0.00000000e+00  0.00000000e+00  0.00000000e+00  4.20307616e-05 
 9.46016000e-11  8.00000000e-01  8.00000000e-01  1.26915918e-04  1.26915917e-04  1.26915916e-04  1.26915913e-04  0.00000000e+00  0.00000000e+00  0.00000000e+00  0.00000000e+00  4.13731932e-05 
 9.75616000e-11  8.00000000e-01  8.00000000e-01  1.25018509e-04  1.25018509e-04  1.25018509e-04  1.25018509e-04  0.00000000e+00  0.00000000e+00  0.00000000e+00  0.00000000e+00  4.02555714e-05 
 1.00521600e-10  8.00000000e-01  8.00000000e-01  1.23385130e-04  1.23385131e-04  1.23385134e-04  1.23385129e-04  0.00000000e+00  0.00000000e+00  0.00000000e+00  0.00000000e+00  3.99677121e-05 
 1.03481600e-10  8.00000000e-01  8.00000000e-01  1.21862073e-04  1.21862077e-04  1.21862075e-04  1.21862075e-04  0.00000000e+00  0.00000000e+00  0.00000000e+00  0.00000000e+00  3.91283352e-05 
 1.06441600e-10  8.00000000e-01  8.00000000e-01  1.20520856e-04  1.20520857e-04  1.20520855e-04  1.20520860e-04  0.00000000e+00  0.00000000e+00  0.00000000e+00  0.00000000e+00  3.90539335e-05 
 1.09401600e-10  8.00000000e-01  8.00000000e-01  1.19267304e-04  1.19267302e-04  1.19267304e-04  1.19267303e-04  0.00000000e+00  0.00000000e+00  0.00000000e+00  0.00000000e+00  3.83761551e-05 
 1.12361600e-10  8.00000000e-01  8.00000000e-01  1.18143620e-04  1.18143617e-04  1.18143616e-04  1.18143619e-04  0.00000000e+00  0.00000000e+00  0.00000000e+00  0.00000000e+00  3.84129358e-05 
 1.15321600e-10  8.00000000e-01  8.00000000e-01  1.17091935e-04  1.17091936e-04  1.17091935e-04  1.17091936e-04  0.00000000e+00  0.00000000e+00  0.00000000e+00  0.00000000e+00  3.78243692e-05 
 1.18281600e-10  8.00000000e-01  8.00000000e-01  1.16137151e-04  1.16137153e-04  1.16137154e-04  1.16137150e-04  0.00000000e+00  0.00000000e+00  0.00000000e+00  0.00000000e+00  3.79317928e-05 
 1.21241600e-10  8.00000000e-01  8.00000000e-01  1.15240323e-04  1.15240322e-04  1.15240324e-04  1.15240322e-04  0.00000000e+00  0.00000000e+00  0.00000000e+00  0.00000000e+00  3.74022529e-05 
 1.24201600e-10  8.00000000e-01  8.00000000e-01  1.14418506e-04  1.14418506e-04  1.14418506e-04  1.14418506e-04  0.00000000e+00  0.00000000e+00  0.00000000e+00  0.00000000e+00  3.75571291e-05 
 1.27161600e-10  8.00000000e-01  8.00000000e-01  1.13643719e-04  1.13643721e-04  1.13643717e-04  1.13643722e-04  0.00000000e+00  0.00000000e+00  0.00000000e+00  0.00000000e+00  3.70570863e-05 
 1.30121600e-10  8.00000000e-01  8.00000000e-01  1.12928811e-04  1.12928808e-04  1.12928808e-04  1.12928810e-04  0.00000000e+00  0.00000000e+00  0.00000000e+00  0.00000000e+00  3.72328565e-05 
 1.33081600e-10  8.00000000e-01  8.00000000e-01  1.12252138e-04  1.12252135e-04  1.12252140e-04  1.12252134e-04  0.00000000e+00  0.00000000e+00  0.00000000e+00  0.00000000e+00  3.67578022e-05 
 1.36041600e-10  8.00000000e-01  8.00000000e-01  1.11624484e-04  1.11624488e-04  1.11624487e-04  1.11624486e-04  0.00000000e+00  0.00000000e+00  0.00000000e+00  0.00000000e+00  3.69518208e-05 
 1.39001600e-10  8.00000000e-01  8.00000000e-01  1.11028003e-04  1.11028005e-04  1.11028003e-04  1.11028005e-04  0.00000000e+00  0.00000000e+00  0.00000000e+00  0.00000000e+00  3.64936265e-05 
 1.41000000e-10  8.00000000e-01  8.00000000e-01  1.10650508e-04  1.10650509e-04  1.10650510e-04  1.10650509e-04  0.00000000e+00  0.00000000e+00  0.00000000e+00  0.00000000e+00  3.67395815e-05 
 1.41296000e-10  7.83085714e-01  8.00000000e-01  1.10593840e-04  1.10593840e-04  1.10593841e-04  1.10593839e-04  0.00000000e+00  0.00000000e+00  0.00000000e+00  0.00000000e+00  3.64272978e-05 
 1.41888000e-10  7.49257143e-01  8.00000000e-01  1.10484857e-04  1.10484855e-04  1.10484855e-04  1.10484854e-04  0.00000000e+00  0.00000000e+00  0.00000000e+00  0.00000000e+00  3.64103776e-05 
 1.43072000e-10  6.81600000e-01  8.00000000e-01  1.10270852e-04  1.10270851e-04  1.10270849e-04  1.10270849e-04  0.00000000e+00  0.00000000e+00  0.00000000e+00  0.00000000e+00  3.66339283e-05 
 1.45440000e-10  5.46285714e-01  8.00000000e-01  1.09854924e-04  1.09854926e-04  1.09854924e-04  1.09854924e-04  0.00000000e+00  0.00000000e+00  0.00000000e+00  0.00000000e+00  3.64769430e-05 
 1.48400000e-10  3.77142857e-01  8.00000000e-01  1.09362357e-04  1.09362356e-04  1.09362357e-04  1.09362357e-04  0.00000000e+00  0.00000000e+00  0.00000000e+00  0.00000000e+00  3.68416008e-05 
 1.51360000e-10  2.08000000e-01  8.00000000e-01  1.08893378e-04  1.08893376e-04  1.08893377e-04  1.08893377e-04  0.00000000e+00  0.00000000e+00  0.00000000e+00  0.00000000e+00  3.52603630e-05 
 1.54320000e-10  3.88571429e-02  8.00000000e-01  1.08435303e-04  1.08435300e-04  1.08435302e-04  1.08435303e-04  0.00000000e+00  0.00000000e+00  0.00000000e+00  0.00000000e+00  9.97367180e-06 
 1.55000000e-10  0.00000000e+00  8.00000000e-01  1.08338838e-04  1.08338837e-04  1.08338838e-04  1.08338838e-04  0.00000000e+00  0.00000000e+00  0.00000000e+00  0.00000000e+00  9.15239409e-07 
 1.55296000e-10  0.00000000e+00  8.00000000e-01  1.08298434e-04  1.08298433e-04  1.08298434e-04  1.08298433e-04  0.00000000e+00  0.00000000e+00  0.00000000e+00  0.00000000e+00 -3.00945189e-06 
 1.55888000e-10  0.00000000e+00  8.00000000e-01  1.08223846e-04  1.08223846e-04  1.08223846e-04  1.08223844e-04  0.00000000e+00  0.00000000e+00  0.00000000e+00  0.00000000e+00 -8.44214359e-06 
 1.57072000e-10  0.00000000e+00  8.00000000e-01  1.08094360e-04  1.08094361e-04  1.08094361e-04  1.08094360e-04  0.00000000e+00  0.00000000e+00  0.00000000e+00  0.00000000e+00 -2.14658598e-06 
 1.59440000e-10  0.00000000e+00  8.00000000e-01  1.07834504e-04  1.07834509e-04  1.07834508e-04  1.07834506e-04  0.00000000e+00  0.00000000e+00  0.00000000e+00  0.00000000e+00  9.84636472e-05 
 1.62400000e-10  0.00000000e+00  8.00000000e-01  1.07334607e-04  1.07334609e-04  1.07334608e-04  1.07334607e-04  0.00000000e+00  0.00000000e+00  0.00000000e+00  0.00000000e+00  2.32461088e-04 
 1.65360000e-10  0.00000000e+00  8.00000000e-01  1.06765751e-04  1.06765749e-04  1.06765749e-04  1.06765754e-04  0.00000000e+00  0.00000000e+00  0.00000000e+00  0.00000000e+00  9.03896729e-05 
 1.68320000e-10  0.00000000e+00  8.00000000e-01  1.05846212e-04  1.05846212e-04  1.05846211e-04  1.05846213e-04  0.00000000e+00  0.00000000e+00  0.00000000e+00  0.00000000e+00 -1.22529484e-03 
 1.71280000e-10  0.00000000e+00  8.00000000e-01  1.05762362e-04  1.05762360e-04  1.05762361e-04  1.05762356e-04  0.00000000e+00  0.00000000e+00  0.00000000e+00  0.00000000e+00 -3.73689808e-03 
 1.74240000e-10  0.00000000e+00  8.00000000e-01  1.06821590e-04  1.06821588e-04  1.06821589e-04  1.06821589e-04  0.00000000e+00  0.00000000e+00  0.00000000e+00  0.00000000e+00 -5.68231803e-03 
 1.77200000e-10  0.00000000e+00  8.00000000e-01  1.11249762e-04  1.11249759e-04  1.11249762e-04  1.11249763e-04  0.00000000e+00  0.00000000e+00  0.00000000e+00  0.00000000e+00 -1.57664050e-04 
 1.80160000e-10  0.00000000e+00  8.00000000e-01  1.30170904e-04  1.30170906e-04  1.30170908e-04  1.30170906e-04  0.00000000e+00  0.00000000e+00  0.00000000e+00  0.00000000e+00  3.89499081e-02 
 1.83120000e-10  0.00000000e+00  8.00000000e-01  1.43254517e-04  1.43254521e-04  1.43254519e-04  1.43254522e-04  0.00000000e+00  0.00000000e+00  0.00000000e+00  0.00000000e+00  1.32545968e-01 
 1.86080000e-10  0.00000000e+00  8.00000000e-01  3.19199277e-05  3.19199280e-05  3.19199279e-05  3.19199261e-05  0.00000000e+00  0.00000000e+00  0.00000000e+00  0.00000000e+00  2.67355120e-01 
 1.89040000e-10  0.00000000e+00  8.00000000e-01 -7.63015663e-04 -7.63015662e-04 -7.63015664e-04 -7.63015665e-04  0.00000000e+00  0.00000000e+00  0.00000000e+00  0.00000000e+00  4.16125119e-01 
 1.92000000e-10  0.00000000e+00  8.00000000e-01 -1.58959078e-03 -1.58959078e-03 -1.58959078e-03 -1.58959078e-03  0.00000000e+00  0.00000000e+00  0.00000000e+00  0.00000000e+00  5.48637138e-01 
 1.94960000e-10  0.00000000e+00  8.00000000e-01  3.10556605e-04  3.10556602e-04  3.10556606e-04  3.10556607e-04  0.00000000e+00  0.00000000e+00  0.00000000e+00  0.00000000e+00  6.53142008e-01 
 1.97920000e-10  0.00000000e+00  8.00000000e-01  7.27360600e-04  7.27360597e-04  7.27360600e-04  7.27360602e-04  0.00000000e+00  0.00000000e+00  0.00000000e+00  0.00000000e+00  7.28736186e-01 
 2.00880000e-10  0.00000000e+00  8.00000000e-01 -1.46521479e-02 -1.46521479e-02 -1.46521479e-02 -1.46521479e-02  0.00000000e+00  0.00000000e+00  0.00000000e+00  0.00000000e+00  7.70509071e-01 
 2.03840000e-10  0.00000000e+00  8.00000000e-01  4.77449609e-02  4.77449609e-02  4.77449609e-02  4.77449608e-02  0.00000000e+00  0.00000000e+00  0.00000000e+00  0.00000000e+00  7.87207996e-01 
 2.06800000e-10  0.00000000e+00  8.00000000e-01  2.72853270e-01  2.72853270e-01  2.72853270e-01  2.72853270e-01  0.00000000e+00  0.00000000e+00  0.00000000e+00  0.00000000e+00  7.94504035e-01 
 2.09760000e-10  0.00000000e+00  8.00000000e-01  5.39599721e-01  5.39599720e-01  5.39599720e-01  5.39599720e-01  0.00000000e+00  0.00000000e+00  0.00000000e+00  0.00000000e+00  7.97255667e-01 
 2.12720000e-10  0.00000000e+00  8.00000000e-01  7.05423842e-01  7.05423842e-01  7.05423842e-01  7.05423842e-01  0.00000000e+00  0.00000000e+00  0.00000000e+00  0.00000000e+00  7.98585650e-01 
 2.15680000e-10  0.00000000e+00  8.00000000e-01  7.73314854e-01  7.73314854e-01  7.73314854e-01  7.73314854e-01  0.00000000e+00  0.00000000e+00  0.00000000e+00  0.00000000e+00  7.99309101e-01 
 2.18640000e-10  0.00000000e+00  8.00000000e-01  7.94019195e-01  7.94019195e-01  7.94019195e-01  7.94019195e-01  0.00000000e+00  0.00000000e+00  0.00000000e+00  0.00000000e+00  7.99517252e-01 
 2.21600000e-10  0.00000000e+00  8.00000000e-01  7.97932136e-01  7.97932136e-01  7.97932136e-01  7.97932136e-01  0.00000000e+00  0.00000000e+00  0.00000000e+00  0.00000000e+00  7.99648811e-01 
 2.24560000e-10  0.00000000e+00  8.00000000e-01  7.99674363e-01  7.99674363e-01  7.99674363e-01  7.99674363e-01  0.00000000e+00  0.00000000e+00  0.00000000e+00  0.00000000e+00  7.99769409e-01 
 2.27520000e-10  0.00000000e+00  8.00000000e-01  7.99733635e-01  7.99733635e-01  7.99733635e-01  7.99733634e-01  0.00000000e+00  0.00000000e+00  0.00000000e+00  0.00000000e+00  7.99820779e-01 
 2.30480000e-10  0.00000000e+00  8.00000000e-01  7.99971705e-01  7.99971705e-01  7.99971705e-01  7.99971705e-01  0.00000000e+00  0.00000000e+00  0.00000000e+00  0.00000000e+00  7.99880357e-01 
 2.33440000e-10  0.00000000e+00  8.00000000e-01  7.99910741e-01  7.99910741e-01  7.99910741e-01  7.99910741e-01  0.00000000e+00  0.00000000e+00  0.00000000e+00  0.00000000e+00  7.99905292e-01 
 2.36400000e-10  0.00000000e+00  8.00000000e-01  7.99963684e-01  7.99963684e-01  7.99963684e-01  7.99963684e-01  0.00000000e+00  0.00000000e+00  0.00000000e+00  0.00000000e+00  7.99925818e-01 
 2.39360000e-10  0.00000000e+00  8.00000000e-01  7.99938200e-01  7.99938200e-01  7.99938200e-01  7.99938200e-01  0.00000000e+00  0.00000000e+00  0.00000000e+00  0.00000000e+00  7.99931900e-01 
 2.42320000e-10  0.00000000e+00  8.00000000e-01  7.99953976e-01  7.99953976e-01  7.99953976e-01  7.99953977e-01  0.00000000e+00  0.00000000e+00  0.00000000e+00  0.00000000e+00  7.99938508e-01 
 2.45280000e-10  0.00000000e+00  8.00000000e-01  7.99944835e-01  7.99944835e-01  7.99944835e-01  7.99944835e-01  0.00000000e+00  0.00000000e+00  0.00000000e+00  0.00000000e+00  7.99939268e-01 
 2.48240000e-10  0.00000000e+00  8.00000000e-01  7.99950210e-01  7.99950210e-01  7.99950210e-01  7.99950210e-01  0.00000000e+00  0.00000000e+00  0.00000000e+00  0.00000000e+00  7.99940149e-01 
 2.51200000e-10  0.00000000e+00  8.00000000e-01  7.99946790e-01  7.99946790e-01  7.99946790e-01  7.99946790e-01  0.00000000e+00  0.00000000e+00  0.00000000e+00  0.00000000e+00  7.99939140e-01 
 2.54160000e-10  0.00000000e+00  8.00000000e-01  7.99948969e-01  7.99948969e-01  7.99948969e-01  7.99948969e-01  0.00000000e+00  0.00000000e+00  0.00000000e+00  0.00000000e+00  7.99939761e-01 
