 time            v(Clk)          v(Wr)           v(R0)           v(R1)           v(R2)           v(R3)           v(A0)           v(A1)           v(A2)           v(A3)           v(Xmain@0.net@117)
 3.20000000e-14  8.00000000e-01  8.00000000e-01  5.30803723e-01  5.30803723e-01  5.30803723e-01  5.30803723e-01  0.00000000e+00  0.00000000e+00  0.00000000e+00  0.00000000e+00  4.02661513e-01 
 6.40000000e-14  8.00000000e-01  8.00000000e-01  5.30604658e-01  5.30604658e-01  5.30604658e-01  5.30604658e-01  0.00000000e+00  0.00000000e+00  0.00000000e+00  0.00000000e+00  4.03420137e-01 
 1.28000000e-13  8.00000000e-01  8.00000000e-01  5.29442335e-01  5.29442335e-01  5.29442335e-01  5.29442335e-01  0.00000000e+00  0.00000000e+00  0.00000000e+00  0.00000000e+00  4.02673196e-01 
 2.56000000e-13  8.00000000e-01  8.00000000e-01  5.27040612e-01  5.27040612e-01  5.27040612e-01  5.27040612e-01  0.00000000e+00  0.00000000e+00  0.00000000e+00  0.00000000e+00  4.01035619e-01 
 5.12000000e-13  8.00000000e-01  8.00000000e-01  5.22008070e-01  5.22008070e-01  5.22008070e-01  5.22008070e-01  0.00000000e+00  0.00000000e+00  0.00000000e+00  0.00000000e+00  3.98295836e-01 
 1.02400000e-12  8.00000000e-01  8.00000000e-01  5.11320844e-01  5.11320844e-01  5.11320844e-01  5.11320844e-01  0.00000000e+00  0.00000000e+00  0.00000000e+00  0.00000000e+00  3.93557300e-01 
 2.04800000e-12  8.00000000e-01  8.00000000e-01  4.89561514e-01  4.89561514e-01  4.89561514e-01  4.89561514e-01  0.00000000e+00  0.00000000e+00  0.00000000e+00  0.00000000e+00  3.86704466e-01 
 3.20000000e-12  8.00000000e-01  8.00000000e-01  4.66769601e-01  4.66769601e-01  4.66769601e-01  4.66769601e-01  0.00000000e+00  0.00000000e+00  0.00000000e+00  0.00000000e+00  3.80738943e-01 
 3.40480000e-12  8.00000000e-01  8.00000000e-01  4.63062910e-01  4.63062910e-01  4.63062910e-01  4.63062910e-01  0.00000000e+00  0.00000000e+00  0.00000000e+00  0.00000000e+00  3.79798739e-01 
 3.81440000e-12  8.00000000e-01  8.00000000e-01  4.55815372e-01  4.55815372e-01  4.55815372e-01  4.55815372e-01  0.00000000e+00  0.00000000e+00  0.00000000e+00  0.00000000e+00  3.77802295e-01 
 4.63360000e-12  8.00000000e-01  8.00000000e-01  4.42234918e-01  4.42234918e-01  4.42234918e-01  4.42234918e-01  0.00000000e+00  0.00000000e+00  0.00000000e+00  0.00000000e+00  3.73084303e-01 
 6.27200000e-12  8.00000000e-01  8.00000000e-01  4.17648329e-01  4.17648329e-01  4.17648329e-01  4.17648329e-01  0.00000000e+00  0.00000000e+00  0.00000000e+00  0.00000000e+00  3.56940770e-01 
 9.47200000e-12  8.00000000e-01  8.00000000e-01  3.72238628e-01  3.72238628e-01  3.72238628e-01  3.72238628e-01  0.00000000e+00  0.00000000e+00  0.00000000e+00  0.00000000e+00  2.92361059e-01 
 1.26720000e-11  8.00000000e-01  8.00000000e-01  3.17192331e-01  3.17192331e-01  3.17192331e-01  3.17192331e-01  0.00000000e+00  0.00000000e+00  0.00000000e+00  0.00000000e+00  1.95950764e-01 
 1.58720000e-11  8.00000000e-01  8.00000000e-01  2.31960619e-01  2.31960619e-01  2.31960619e-01  2.31960619e-01  0.00000000e+00  0.00000000e+00  0.00000000e+00  0.00000000e+00  9.49624618e-02 
 1.90720000e-11  8.00000000e-01  8.00000000e-01  1.26700818e-01  1.26700818e-01  1.26700818e-01  1.26700818e-01  0.00000000e+00  0.00000000e+00  0.00000000e+00  0.00000000e+00  2.85711421e-02 
 2.22720000e-11  8.00000000e-01  8.00000000e-01  4.63022114e-02  4.63022114e-02  4.63022114e-02  4.63022115e-02  0.00000000e+00  0.00000000e+00  0.00000000e+00  0.00000000e+00  7.26497843e-03 
 2.54720000e-11  8.00000000e-01  8.00000000e-01  1.28694108e-02  1.28694108e-02  1.28694108e-02  1.28694109e-02  0.00000000e+00  0.00000000e+00  0.00000000e+00  0.00000000e+00  3.30198089e-03 
 2.86720000e-11  8.00000000e-01  8.00000000e-01  4.09017067e-03  4.09017067e-03  4.09017068e-03  4.09017069e-03  0.00000000e+00  0.00000000e+00  0.00000000e+00  0.00000000e+00  2.08505409e-03 
 3.18720000e-11  8.00000000e-01  8.00000000e-01  1.25415670e-03  1.25415670e-03  1.25415670e-03  1.25415670e-03  0.00000000e+00  0.00000000e+00  0.00000000e+00  0.00000000e+00  1.44308306e-03 
 3.50720000e-11  8.00000000e-01  8.00000000e-01  7.48041985e-04  7.48041986e-04  7.48041988e-04  7.48041981e-04  0.00000000e+00  0.00000000e+00  0.00000000e+00  0.00000000e+00  9.86405084e-04 
 3.82720000e-11  8.00000000e-01  8.00000000e-01  3.69548782e-04  3.69548782e-04  3.69548782e-04  3.69548780e-04  0.00000000e+00  0.00000000e+00  0.00000000e+00  0.00000000e+00  7.65083167e-04 
 4.14720000e-11  8.00000000e-01  8.00000000e-01  4.31549830e-04  4.31549830e-04  4.31549830e-04  4.31549831e-04  0.00000000e+00  0.00000000e+00  0.00000000e+00  0.00000000e+00  6.34836133e-04 
 4.46720000e-11  8.00000000e-01  8.00000000e-01  2.64265990e-04  2.64265990e-04  2.64265989e-04  2.64265994e-04  0.00000000e+00  0.00000000e+00  0.00000000e+00  0.00000000e+00  5.04314425e-04 
 4.78720000e-11  8.00000000e-01  8.00000000e-01  2.58184666e-04  2.58184665e-04  2.58184666e-04  2.58184668e-04  0.00000000e+00  0.00000000e+00  0.00000000e+00  0.00000000e+00  3.66446968e-04 
 5.10720000e-11  8.00000000e-01  8.00000000e-01  1.35985540e-04  1.35985540e-04  1.35985542e-04  1.35985540e-04  0.00000000e+00  0.00000000e+00  0.00000000e+00  0.00000000e+00  2.61525296e-04 
 5.42720000e-11  8.00000000e-01  8.00000000e-01  1.81168017e-04  1.81168018e-04  1.81168019e-04  1.81168015e-04  0.00000000e+00  0.00000000e+00  0.00000000e+00  0.00000000e+00  1.93966641e-04 
 5.74720000e-11  8.00000000e-01  8.00000000e-01  2.00601549e-04  2.00601550e-04  2.00601549e-04  2.00601548e-04  0.00000000e+00  0.00000000e+00  0.00000000e+00  0.00000000e+00  1.48118529e-04 
 6.06720000e-11  8.00000000e-01  8.00000000e-01  2.17112835e-04  2.17112834e-04  2.17112832e-04  2.17112837e-04  0.00000000e+00  0.00000000e+00  0.00000000e+00  0.00000000e+00  1.12603814e-04 
 6.38720000e-11  8.00000000e-01  8.00000000e-01  1.68152056e-04  1.68152053e-04  1.68152053e-04  1.68152055e-04  0.00000000e+00  0.00000000e+00  0.00000000e+00  0.00000000e+00  8.90211411e-05 
 6.70720000e-11  8.00000000e-01  8.00000000e-01  1.68985831e-04  1.68985831e-04  1.68985832e-04  1.68985827e-04  0.00000000e+00  0.00000000e+00  0.00000000e+00  0.00000000e+00  7.55192138e-05 
 7.02720000e-11  8.00000000e-01  8.00000000e-01  1.51696236e-04  1.51696235e-04  1.51696236e-04  1.51696237e-04  0.00000000e+00  0.00000000e+00  0.00000000e+00  0.00000000e+00  6.63397138e-05 
 7.34720000e-11  8.00000000e-01  8.00000000e-01  1.53601665e-04  1.53601667e-04  1.53601664e-04  1.53601666e-04  0.00000000e+00  0.00000000e+00  0.00000000e+00  0.00000000e+00  5.90488168e-05 
 7.66720000e-11  8.00000000e-01  8.00000000e-01  1.42613987e-04  1.42613990e-04  1.42613988e-04  1.42613985e-04  0.00000000e+00  0.00000000e+00  0.00000000e+00  0.00000000e+00  5.40897171e-05 
 7.98720000e-11  8.00000000e-01  8.00000000e-01  1.42464214e-04  1.42464215e-04  1.42464215e-04  1.42464216e-04  0.00000000e+00  0.00000000e+00  0.00000000e+00  0.00000000e+00  4.97895887e-05 
 8.30720000e-11  8.00000000e-01  8.00000000e-01  1.35299400e-04  1.35299397e-04  1.35299401e-04  1.35299402e-04  0.00000000e+00  0.00000000e+00  0.00000000e+00  0.00000000e+00  4.71422278e-05 
 8.62720000e-11  8.00000000e-01  8.00000000e-01  1.34510284e-04  1.34510284e-04  1.34510285e-04  1.34510289e-04  0.00000000e+00  0.00000000e+00  0.00000000e+00  0.00000000e+00  4.45905780e-05 
 8.94720000e-11  8.00000000e-01  8.00000000e-01  1.29788357e-04  1.29788357e-04  1.29788356e-04  1.29788359e-04  0.00000000e+00  0.00000000e+00  0.00000000e+00  0.00000000e+00  4.32384486e-05 
 9.26720000e-11  8.00000000e-01  8.00000000e-01  1.28774155e-04  1.28774155e-04  1.28774154e-04  1.28774152e-04  0.00000000e+00  0.00000000e+00  0.00000000e+00  0.00000000e+00  4.16481419e-05 
 9.58720000e-11  8.00000000e-01  8.00000000e-01  1.25537785e-04  1.25537788e-04  1.25537788e-04  1.25537785e-04  0.00000000e+00  0.00000000e+00  0.00000000e+00  0.00000000e+00  4.09966945e-05 
 9.90720000e-11  8.00000000e-01  8.00000000e-01  1.24465394e-04  1.24465393e-04  1.24465394e-04  1.24465394e-04  0.00000000e+00  0.00000000e+00  0.00000000e+00  0.00000000e+00  3.99226573e-05 
 1.02272000e-10  8.00000000e-01  8.00000000e-01  1.22147828e-04  1.22147825e-04  1.22147827e-04  1.22147831e-04  0.00000000e+00  0.00000000e+00  0.00000000e+00  0.00000000e+00  3.96460092e-05 
 1.05472000e-10  8.00000000e-01  8.00000000e-01  1.21104679e-04  1.21104677e-04  1.21104677e-04  1.21104678e-04  0.00000000e+00  0.00000000e+00  0.00000000e+00  0.00000000e+00  3.88522696e-05 
 1.08672000e-10  8.00000000e-01  8.00000000e-01  1.19374305e-04  1.19374304e-04  1.19374304e-04  1.19374301e-04  0.00000000e+00  0.00000000e+00  0.00000000e+00  0.00000000e+00  3.87842399e-05 
 1.11872000e-10  8.00000000e-01  8.00000000e-01  1.18401246e-04  1.18401248e-04  1.18401251e-04  1.18401244e-04  0.00000000e+00  0.00000000e+00  0.00000000e+00  0.00000000e+00  3.81371422e-05 
 1.15072000e-10  8.00000000e-01  8.00000000e-01  1.17059148e-04  1.17059149e-04  1.17059149e-04  1.17059147e-04  0.00000000e+00  0.00000000e+00  0.00000000e+00  0.00000000e+00  3.81730795e-05 
 1.18272000e-10  8.00000000e-01  8.00000000e-01  1.16174323e-04  1.16174324e-04  1.16174321e-04  1.16174328e-04  0.00000000e+00  0.00000000e+00  0.00000000e+00  0.00000000e+00  3.76135685e-05 
 1.21472000e-10  8.00000000e-01  8.00000000e-01  1.15098406e-04  1.15098408e-04  1.15098403e-04  1.15098408e-04  0.00000000e+00  0.00000000e+00  0.00000000e+00  0.00000000e+00  3.77172458e-05 
 1.24672000e-10  8.00000000e-01  8.00000000e-01  1.14303226e-04  1.14303225e-04  1.14303223e-04  1.14303220e-04  0.00000000e+00  0.00000000e+00  0.00000000e+00  0.00000000e+00  3.72122955e-05 
 1.27872000e-10  8.00000000e-01  8.00000000e-01  1.13416636e-04  1.13416636e-04  1.13416636e-04  1.13416632e-04  0.00000000e+00  0.00000000e+00  0.00000000e+00  0.00000000e+00  3.73473416e-05 
 1.31072000e-10  8.00000000e-01  8.00000000e-01  1.12706149e-04  1.12706150e-04  1.12706152e-04  1.12706153e-04  0.00000000e+00  0.00000000e+00  0.00000000e+00  0.00000000e+00  3.68693449e-05 
 1.34272000e-10  8.00000000e-01  8.00000000e-01  1.11958911e-04  1.11958912e-04  1.11958912e-04  1.11958915e-04  0.00000000e+00  0.00000000e+00  0.00000000e+00  0.00000000e+00  3.70302737e-05 
 1.37472000e-10  8.00000000e-01  8.00000000e-01  1.11325081e-04  1.11325082e-04  1.11325080e-04  1.11325077e-04  0.00000000e+00  0.00000000e+00  0.00000000e+00  0.00000000e+00  3.65736745e-05 
 1.40672000e-10  8.00000000e-01  8.00000000e-01  1.10683745e-04  1.10683744e-04  1.10683745e-04  1.10683745e-04  0.00000000e+00  0.00000000e+00  0.00000000e+00  0.00000000e+00  3.67513617e-05 
 1.43872000e-10  8.00000000e-01  8.00000000e-01  1.10117724e-04  1.10117722e-04  1.10117724e-04  1.10117727e-04  0.00000000e+00  0.00000000e+00  0.00000000e+00  0.00000000e+00  3.63102299e-05 
 1.47072000e-10  8.00000000e-01  8.00000000e-01  1.09559206e-04  1.09559204e-04  1.09559205e-04  1.09559205e-04  0.00000000e+00  0.00000000e+00  0.00000000e+00  0.00000000e+00  3.65000391e-05 
 1.50272000e-10  8.00000000e-01  8.00000000e-01  1.09052442e-04  1.09052441e-04  1.09052440e-04  1.09052440e-04  0.00000000e+00  0.00000000e+00  0.00000000e+00  0.00000000e+00  3.60707633e-05 
 1.52000000e-10  8.00000000e-01  8.00000000e-01  1.08781292e-04  1.08781291e-04  1.08781292e-04  1.08781291e-04  0.00000000e+00  0.00000000e+00  0.00000000e+00  0.00000000e+00  3.63209699e-05 
 1.52320000e-10  7.84000000e-01  8.00000000e-01  1.08733592e-04  1.08733592e-04  1.08733593e-04  1.08733592e-04  0.00000000e+00  0.00000000e+00  0.00000000e+00  0.00000000e+00  3.60351881e-05 
 1.52960000e-10  7.52000000e-01  8.00000000e-01  1.08639291e-04  1.08639292e-04  1.08639292e-04  1.08639293e-04  0.00000000e+00  0.00000000e+00  0.00000000e+00  0.00000000e+00  3.60333505e-05 
 1.54240000e-10  6.88000000e-01  8.00000000e-01  1.08451009e-04  1.08451011e-04  1.08451009e-04  1.08451011e-04  0.00000000e+00  0.00000000e+00  0.00000000e+00  0.00000000e+00  3.62236443e-05 
 1.56800000e-10  5.60000000e-01  8.00000000e-01  1.08085607e-04  1.08085607e-04  1.08085606e-04  1.08085606e-04  0.00000000e+00  0.00000000e+00  0.00000000e+00  0.00000000e+00  3.60352645e-05 
 1.60000000e-10  4.00000000e-01  8.00000000e-01  1.07652089e-04  1.07652089e-04  1.07652089e-04  1.07652090e-04  0.00000000e+00  0.00000000e+00  0.00000000e+00  0.00000000e+00  3.63194827e-05 
 1.63200000e-10  2.40000000e-01  8.00000000e-01  1.07239260e-04  1.07239261e-04  1.07239261e-04  1.07239261e-04  0.00000000e+00  0.00000000e+00  0.00000000e+00  0.00000000e+00  3.53920755e-05 
 1.66400000e-10  8.00000000e-02  8.00000000e-01  1.06835803e-04  1.06835804e-04  1.06835807e-04  1.06835801e-04  0.00000000e+00  0.00000000e+00  0.00000000e+00  0.00000000e+00  1.34970617e-05 
 1.68000000e-10  2.22044605e-16  8.00000000e-01  1.06652394e-04  1.06652395e-04  1.06652396e-04  1.06652395e-04  0.00000000e+00  0.00000000e+00  0.00000000e+00  0.00000000e+00 -4.74855037e-06 
 1.68320000e-10  0.00000000e+00  8.00000000e-01  1.06620315e-04  1.06620316e-04  1.06620317e-04  1.06620317e-04  0.00000000e+00  0.00000000e+00  0.00000000e+00  0.00000000e+00 -7.19891915e-06 
 1.68960000e-10  0.00000000e+00  8.00000000e-01  1.06561804e-04  1.06561804e-04  1.06561805e-04  1.06561805e-04  0.00000000e+00  0.00000000e+00  0.00000000e+00  0.00000000e+00 -8.62157373e-06 
 1.70240000e-10  0.00000000e+00  8.00000000e-01  1.06472003e-04  1.06472002e-04  1.06472003e-04  1.06472002e-04  0.00000000e+00  0.00000000e+00  0.00000000e+00  0.00000000e+00  2.02934599e-05 
 1.72800000e-10  0.00000000e+00  8.00000000e-01  1.06202398e-04  1.06202398e-04  1.06202398e-04  1.06202396e-04  0.00000000e+00  0.00000000e+00  0.00000000e+00  0.00000000e+00  1.51080509e-04 
 1.76000000e-10  0.00000000e+00  8.00000000e-01  1.05704417e-04  1.05704417e-04  1.05704416e-04  1.05704417e-04  0.00000000e+00  0.00000000e+00  0.00000000e+00  0.00000000e+00  2.41550739e-04 
 1.79200000e-10  0.00000000e+00  8.00000000e-01  1.05017372e-04  1.05017372e-04  1.05017374e-04  1.05017374e-04  0.00000000e+00  0.00000000e+00  0.00000000e+00  0.00000000e+00 -3.57152074e-04 
 1.82400000e-10  0.00000000e+00  8.00000000e-01  1.04308159e-04  1.04308160e-04  1.04308161e-04  1.04308162e-04  0.00000000e+00  0.00000000e+00  0.00000000e+00  0.00000000e+00 -2.55372486e-03 
 1.85600000e-10  0.00000000e+00  8.00000000e-01  1.05064838e-04  1.05064838e-04  1.05064835e-04  1.05064840e-04  0.00000000e+00  0.00000000e+00  0.00000000e+00  0.00000000e+00 -5.23702374e-03 
 1.88800000e-10  0.00000000e+00  8.00000000e-01  1.07869939e-04  1.07869941e-04  1.07869938e-04  1.07869936e-04  0.00000000e+00  0.00000000e+00  0.00000000e+00  0.00000000e+00 -3.38203490e-03 
 1.92000000e-10  0.00000000e+00  8.00000000e-01  1.23760705e-04  1.23760707e-04  1.23760708e-04  1.23760705e-04  0.00000000e+00  0.00000000e+00  0.00000000e+00  0.00000000e+00  2.78923086e-02 
 1.95200000e-10  0.00000000e+00  8.00000000e-01  1.43247865e-04  1.43247864e-04  1.43247865e-04  1.43247864e-04  0.00000000e+00  0.00000000e+00  0.00000000e+00  0.00000000e+00  1.19403280e-01 
 1.98400000e-10  0.00000000e+00  8.00000000e-01  4.23077179e-05  4.23077181e-05  4.23077172e-05  4.23077183e-05  0.00000000e+00  0.00000000e+00  0.00000000e+00  0.00000000e+00  2.62544161e-01 
 2.01600000e-10  0.00000000e+00  8.00000000e-01 -8.10462240e-04 -8.10462240e-04 -8.10462240e-04 -8.10462239e-04  0.00000000e+00  0.00000000e+00  0.00000000e+00  0.00000000e+00  4.22906469e-01 
 2.04800000e-10  0.00000000e+00  8.00000000e-01 -1.51230417e-03 -1.51230418e-03 -1.51230418e-03 -1.51230418e-03  0.00000000e+00  0.00000000e+00  0.00000000e+00  0.00000000e+00  5.63595562e-01 
 2.08000000e-10  0.00000000e+00  8.00000000e-01  9.45793019e-04  9.45793020e-04  9.45793023e-04  9.45793020e-04  0.00000000e+00  0.00000000e+00  0.00000000e+00  0.00000000e+00  6.71666668e-01 
 2.11200000e-10  0.00000000e+00  8.00000000e-01 -2.25622676e-03 -2.25622676e-03 -2.25622676e-03 -2.25622676e-03  0.00000000e+00  0.00000000e+00  0.00000000e+00  0.00000000e+00  7.43950722e-01 
 2.14400000e-10  0.00000000e+00  8.00000000e-01 -1.32445596e-02 -1.32445596e-02 -1.32445596e-02 -1.32445596e-02  0.00000000e+00  0.00000000e+00  0.00000000e+00  0.00000000e+00  7.78994577e-01 
 2.17600000e-10  0.00000000e+00  8.00000000e-01  1.16504066e-01  1.16504066e-01  1.16504066e-01  1.16504066e-01  0.00000000e+00  0.00000000e+00  0.00000000e+00  0.00000000e+00  7.91286618e-01 
 2.20800000e-10  0.00000000e+00  8.00000000e-01  4.09341614e-01  4.09341614e-01  4.09341614e-01  4.09341614e-01  0.00000000e+00  0.00000000e+00  0.00000000e+00  0.00000000e+00  7.96473692e-01 
 2.24000000e-10  0.00000000e+00  8.00000000e-01  6.45107626e-01  6.45107626e-01  6.45107626e-01  6.45107626e-01  0.00000000e+00  0.00000000e+00  0.00000000e+00  0.00000000e+00  7.98129684e-01 
 2.27200000e-10  0.00000000e+00  8.00000000e-01  7.56740577e-01  7.56740577e-01  7.56740577e-01  7.56740577e-01  0.00000000e+00  0.00000000e+00  0.00000000e+00  0.00000000e+00  7.99188267e-01 
 2.30400000e-10  0.00000000e+00  8.00000000e-01  7.92374446e-01  7.92374446e-01  7.92374446e-01  7.92374446e-01  0.00000000e+00  0.00000000e+00  0.00000000e+00  0.00000000e+00  7.99517877e-01 
 2.33600000e-10  0.00000000e+00  8.00000000e-01  7.97268795e-01  7.97268795e-01  7.97268795e-01  7.97268795e-01  0.00000000e+00  0.00000000e+00  0.00000000e+00  0.00000000e+00  7.99608107e-01 
 2.36800000e-10  0.00000000e+00  8.00000000e-01  7.99895150e-01  7.99895150e-01  7.99895150e-01  7.99895150e-01  0.00000000e+00  0.00000000e+00  0.00000000e+00  0.00000000e+00  7.99786790e-01 
 2.40000000e-10  0.00000000e+00  8.00000000e-01  7.99650135e-01  7.99650135e-01  7.99650135e-01  7.99650135e-01  0.00000000e+00  0.00000000e+00  0.00000000e+00  0.00000000e+00  7.99810922e-01 
 2.43200000e-10  0.00000000e+00  8.00000000e-01  8.00041649e-01  8.00041649e-01  8.00041649e-01  8.00041649e-01  0.00000000e+00  0.00000000e+00  0.00000000e+00  0.00000000e+00  7.99892901e-01 
 2.46400000e-10  0.00000000e+00  8.00000000e-01  7.99890763e-01  7.99890763e-01  7.99890763e-01  7.99890763e-01  0.00000000e+00  0.00000000e+00  0.00000000e+00  0.00000000e+00  7.99905663e-01 
 2.49600000e-10  0.00000000e+00  8.00000000e-01  7.99977142e-01  7.99977142e-01  7.99977142e-01  7.99977142e-01  0.00000000e+00  0.00000000e+00  0.00000000e+00  0.00000000e+00  7.99931498e-01 
 2.52800000e-10  0.00000000e+00  8.00000000e-01  7.99936748e-01  7.99936748e-01  7.99936748e-01  7.99936748e-01  0.00000000e+00  0.00000000e+00  0.00000000e+00  0.00000000e+00  7.99933231e-01 
 2.56000000e-10  0.00000000e+00  8.00000000e-01  7.99954098e-01  7.99954098e-01  7.99954098e-01  7.99954098e-01  0.00000000e+00  0.00000000e+00  0.00000000e+00  0.00000000e+00  7.99940218e-01 
 2.59200000e-10  0.00000000e+00  8.00000000e-01  7.99947099e-01  7.99947099e-01  7.99947099e-01  7.99947099e-01  0.00000000e+00  0.00000000e+00  0.00000000e+00  0.00000000e+00  7.99939689e-01 
 2.62400000e-10  0.00000000e+00  8.00000000e-01  7.99947959e-01  7.99947959e-01  7.99947959e-01  7.99947959e-01  0.00000000e+00  0.00000000e+00  0.00000000e+00  0.00000000e+00  7.99939687e-01 
 2.65600000e-10  0.00000000e+00  8.00000000e-01  7.99949345e-01  7.99949345e-01  7.99949345e-01  7.99949345e-01  0.00000000e+00  0.00000000e+00  0.00000000e+00  0.00000000e+00  7.99939596e-01 
 2.68800000e-10  0.00000000e+00  8.00000000e-01  7.99946862e-01  7.99946862e-01  7.99946862e-01  7.99946862e-01  0.00000000e+00  0.00000000e+00  0.00000000e+00  0.00000000e+00  7.99939429e-01 
 2.72000000e-10  0.00000000e+00  8.00000000e-01  7.99949209e-01  7.99949209e-01  7.99949209e-01  7.99949209e-01  0.00000000e+00  0.00000000e+00  0.00000000e+00  0.00000000e+00  7.99940430e-01 
 2.75200000e-10  0.00000000e+00  8.00000000e-01  7.99947153e-01  7.99947153e-01  7.99947153e-01  7.99947153e-01  0.00000000e+00  0.00000000e+00  0.00000000e+00  0.00000000e+00  7.99940575e-01 
