 time            v(Clk)          v(Wr)           v(R0)           v(R1)           v(R2)           v(R3)           v(A0)           v(A1)           v(A2)           v(A3)           v(Xmain@0.net@117)
 4.00000000e-14  8.00000000e-01  8.00000000e-01  5.30734854e-01  5.30734854e-01  5.30734854e-01  5.30734854e-01  0.00000000e+00  0.00000000e+00  0.00000000e+00  0.00000000e+00  4.02794556e-01 
 8.00000000e-14  8.00000000e-01  8.00000000e-01  5.30313032e-01  5.30313032e-01  5.30313032e-01  5.30313032e-01  0.00000000e+00  0.00000000e+00  0.00000000e+00  0.00000000e+00  4.03229326e-01 
 1.60000000e-13  8.00000000e-01  8.00000000e-01  5.28847780e-01  5.28847780e-01  5.28847780e-01  5.28847780e-01  0.00000000e+00  0.00000000e+00  0.00000000e+00  0.00000000e+00  4.02262517e-01 
 3.20000000e-13  8.00000000e-01  8.00000000e-01  5.25807807e-01  5.25807807e-01  5.25807807e-01  5.25807807e-01  0.00000000e+00  0.00000000e+00  0.00000000e+00  0.00000000e+00  4.00311631e-01 
 6.40000000e-13  8.00000000e-01  8.00000000e-01  5.19394907e-01  5.19394907e-01  5.19394907e-01  5.19394907e-01  0.00000000e+00  0.00000000e+00  0.00000000e+00  0.00000000e+00  3.97012100e-01 
 1.28000000e-12  8.00000000e-01  8.00000000e-01  5.05844485e-01  5.05844485e-01  5.05844485e-01  5.05844485e-01  0.00000000e+00  0.00000000e+00  0.00000000e+00  0.00000000e+00  3.91599271e-01 
 2.56000000e-12  8.00000000e-01  8.00000000e-01  4.79137941e-01  4.79137941e-01  4.79137941e-01  4.79137941e-01  0.00000000e+00  0.00000000e+00  0.00000000e+00  0.00000000e+00  3.83888719e-01 
 4.00000000e-12  8.00000000e-01  8.00000000e-01  4.52482509e-01  4.52482509e-01  4.52482509e-01  4.52482509e-01  0.00000000e+00  0.00000000e+00  0.00000000e+00  0.00000000e+00  3.76481177e-01 
 4.25600000e-12  8.00000000e-01  8.00000000e-01  4.48258963e-01  4.48258963e-01  4.48258963e-01  4.48258963e-01  0.00000000e+00  0.00000000e+00  0.00000000e+00  0.00000000e+00  3.75035334e-01 
 4.76800000e-12  8.00000000e-01  8.00000000e-01  4.40016214e-01  4.40016214e-01  4.40016214e-01  4.40016214e-01  0.00000000e+00  0.00000000e+00  0.00000000e+00  0.00000000e+00  3.71794262e-01 
 5.79200000e-12  8.00000000e-01  8.00000000e-01  4.24553385e-01  4.24553385e-01  4.24553385e-01  4.24553385e-01  0.00000000e+00  0.00000000e+00  0.00000000e+00  0.00000000e+00  3.62625892e-01 
 7.84000000e-12  8.00000000e-01  8.00000000e-01  3.95756423e-01  3.95756423e-01  3.95756423e-01  3.95756423e-01  0.00000000e+00  0.00000000e+00  0.00000000e+00  0.00000000e+00  3.29844831e-01 
 1.18400000e-11  8.00000000e-01  8.00000000e-01  3.32175168e-01  3.32175168e-01  3.32175168e-01  3.32175168e-01  0.00000000e+00  0.00000000e+00  0.00000000e+00  0.00000000e+00  2.22941818e-01 
 1.58400000e-11  8.00000000e-01  8.00000000e-01  2.28112163e-01  2.28112163e-01  2.28112163e-01  2.28112163e-01  0.00000000e+00  0.00000000e+00  0.00000000e+00  0.00000000e+00  9.68969317e-02 
 1.98400000e-11  8.00000000e-01  8.00000000e-01  1.02464207e-01  1.02464207e-01  1.02464207e-01  1.02464207e-01  0.00000000e+00  0.00000000e+00  0.00000000e+00  0.00000000e+00  2.01191693e-02 
 2.38400000e-11  8.00000000e-01  8.00000000e-01  2.44260011e-02  2.44260011e-02  2.44260011e-02  2.44260011e-02  0.00000000e+00  0.00000000e+00  0.00000000e+00  0.00000000e+00  3.81992919e-03 
 2.78400000e-11  8.00000000e-01  8.00000000e-01  4.20298495e-03  4.20298494e-03  4.20298496e-03  4.20298495e-03  0.00000000e+00  0.00000000e+00  0.00000000e+00  0.00000000e+00  2.32810480e-03 
 3.18400000e-11  8.00000000e-01  8.00000000e-01  1.39501032e-03  1.39501032e-03  1.39501032e-03  1.39501032e-03  0.00000000e+00  0.00000000e+00  0.00000000e+00  0.00000000e+00  1.43907092e-03 
 3.58400000e-11  8.00000000e-01  8.00000000e-01  2.90509125e-04  2.90509125e-04  2.90509124e-04  2.90509123e-04  0.00000000e+00  0.00000000e+00  0.00000000e+00  0.00000000e+00  8.98555717e-04 
 3.98400000e-11  8.00000000e-01  8.00000000e-01  5.52392779e-04  5.52392777e-04  5.52392778e-04  5.52392778e-04  0.00000000e+00  0.00000000e+00  0.00000000e+00  0.00000000e+00  6.88218805e-04 
 4.38400000e-11  8.00000000e-01  8.00000000e-01  1.84246512e-04  1.84246513e-04  1.84246514e-04  1.84246513e-04  0.00000000e+00  0.00000000e+00  0.00000000e+00  0.00000000e+00  5.43178127e-04 
 4.78400000e-11  8.00000000e-01  8.00000000e-01  3.39019671e-04  3.39019672e-04  3.39019671e-04  3.39019670e-04  0.00000000e+00  0.00000000e+00  0.00000000e+00  0.00000000e+00  3.63207390e-04 
 5.18400000e-11  8.00000000e-01  8.00000000e-01  6.50888124e-05  6.50888127e-05  6.50888128e-05  6.50888171e-05  0.00000000e+00  0.00000000e+00  0.00000000e+00  0.00000000e+00  2.43129250e-04 
 5.58400000e-11  8.00000000e-01  8.00000000e-01  2.52521763e-04  2.52521765e-04  2.52521766e-04  2.52521765e-04  0.00000000e+00  0.00000000e+00  0.00000000e+00  0.00000000e+00  1.65151205e-04 
 5.98400000e-11  8.00000000e-01  8.00000000e-01  1.68161777e-04  1.68161775e-04  1.68161776e-04  1.68161775e-04  0.00000000e+00  0.00000000e+00  0.00000000e+00  0.00000000e+00  1.21695791e-04 
 6.38400000e-11  8.00000000e-01  8.00000000e-01  2.22988583e-04  2.22988581e-04  2.22988582e-04  2.22988583e-04  0.00000000e+00  0.00000000e+00  0.00000000e+00  0.00000000e+00  8.70809502e-05 
 6.78400000e-11  8.00000000e-01  8.00000000e-01  1.24509580e-04  1.24509581e-04  1.24509578e-04  1.24509581e-04  0.00000000e+00  0.00000000e+00  0.00000000e+00  0.00000000e+00  7.27062847e-05 
 7.18400000e-11  8.00000000e-01  8.00000000e-01  1.81285736e-04  1.81285736e-04  1.81285733e-04  1.81285734e-04  0.00000000e+00  0.00000000e+00  0.00000000e+00  0.00000000e+00  6.20710524e-05 
 7.58400000e-11  8.00000000e-01  8.00000000e-01  1.24724248e-04  1.24724248e-04  1.24724251e-04  1.24724245e-04  0.00000000e+00  0.00000000e+00  0.00000000e+00  0.00000000e+00  5.48228328e-05 
 7.98400000e-11  8.00000000e-01  8.00000000e-01  1.57625192e-04  1.57625193e-04  1.57625191e-04  1.57625193e-04  0.00000000e+00  0.00000000e+00  0.00000000e+00  0.00000000e+00  4.97563016e-05 
 8.38400000e-11  8.00000000e-01  8.00000000e-01  1.22566070e-04  1.22566069e-04  1.22566068e-04  1.22566070e-04  0.00000000e+00  0.00000000e+00  0.00000000e+00  0.00000000e+00  4.61537275e-05 
 8.78400000e-11  8.00000000e-01  8.00000000e-01  1.42104185e-04  1.42104185e-04  1.42104188e-04  1.42104186e-04  0.00000000e+00  0.00000000e+00  0.00000000e+00  0.00000000e+00  4.37869612e-05 
 9.18400000e-11  8.00000000e-01  8.00000000e-01  1.20210677e-04  1.20210678e-04  1.20210677e-04  1.20210677e-04  0.00000000e+00  0.00000000e+00  0.00000000e+00  0.00000000e+00  4.19426593e-05 
 9.58400000e-11  8.00000000e-01  8.00000000e-01  1.32490539e-04  1.32490539e-04  1.32490541e-04  1.32490540e-04  0.00000000e+00  0.00000000e+00  0.00000000e+00  0.00000000e+00  4.08427864e-05 
 9.98400000e-11  8.00000000e-01  8.00000000e-01  1.18164661e-04  1.18164660e-04  1.18164660e-04  1.18164664e-04  0.00000000e+00  0.00000000e+00  0.00000000e+00  0.00000000e+00  3.98008682e-05 
 1.03840000e-10  8.00000000e-01  8.00000000e-01  1.25789707e-04  1.25789707e-04  1.25789705e-04  1.25789706e-04  0.00000000e+00  0.00000000e+00  0.00000000e+00  0.00000000e+00  3.92806200e-05 
 1.07840000e-10  8.00000000e-01  8.00000000e-01  1.16294271e-04  1.16294273e-04  1.16294272e-04  1.16294270e-04  0.00000000e+00  0.00000000e+00  0.00000000e+00  0.00000000e+00  3.86148959e-05 
 1.11840000e-10  8.00000000e-01  8.00000000e-01  1.20938511e-04  1.20938511e-04  1.20938512e-04  1.20938512e-04  0.00000000e+00  0.00000000e+00  0.00000000e+00  0.00000000e+00  3.83601173e-05 
 1.15840000e-10  8.00000000e-01  8.00000000e-01  1.14559287e-04  1.14559286e-04  1.14559286e-04  1.14559287e-04  0.00000000e+00  0.00000000e+00  0.00000000e+00  0.00000000e+00  3.78579171e-05 
 1.19840000e-10  8.00000000e-01  8.00000000e-01  1.17311320e-04  1.17311320e-04  1.17311320e-04  1.17311319e-04  0.00000000e+00  0.00000000e+00  0.00000000e+00  0.00000000e+00  3.77346035e-05 
 1.23840000e-10  8.00000000e-01  8.00000000e-01  1.12964261e-04  1.12964261e-04  1.12964262e-04  1.12964260e-04  0.00000000e+00  0.00000000e+00  0.00000000e+00  0.00000000e+00  3.73302379e-05 
 1.27840000e-10  8.00000000e-01  8.00000000e-01  1.14524351e-04  1.14524351e-04  1.14524351e-04  1.14524346e-04  0.00000000e+00  0.00000000e+00  0.00000000e+00  0.00000000e+00  3.72682019e-05 
 1.31840000e-10  8.00000000e-01  8.00000000e-01  1.11506738e-04  1.11506739e-04  1.11506738e-04  1.11506742e-04  0.00000000e+00  0.00000000e+00  0.00000000e+00  0.00000000e+00  3.69014933e-05 
 1.35840000e-10  8.00000000e-01  8.00000000e-01  1.12323505e-04  1.12323504e-04  1.12323504e-04  1.12323511e-04  0.00000000e+00  0.00000000e+00  0.00000000e+00  0.00000000e+00  3.68817212e-05 
 1.39840000e-10  8.00000000e-01  8.00000000e-01  1.10184006e-04  1.10184007e-04  1.10184007e-04  1.10184006e-04  0.00000000e+00  0.00000000e+00  0.00000000e+00  0.00000000e+00  3.65437561e-05 
 1.43840000e-10  8.00000000e-01  8.00000000e-01  1.10544318e-04  1.10544317e-04  1.10544320e-04  1.10544314e-04  0.00000000e+00  0.00000000e+00  0.00000000e+00  0.00000000e+00  3.65485666e-05 
 1.47840000e-10  8.00000000e-01  8.00000000e-01  1.08990036e-04  1.08990035e-04  1.08990036e-04  1.08990036e-04  0.00000000e+00  0.00000000e+00  0.00000000e+00  0.00000000e+00  3.62306681e-05 
 1.51840000e-10  8.00000000e-01  8.00000000e-01  1.09075021e-04  1.09075024e-04  1.09075021e-04  1.09075024e-04  0.00000000e+00  0.00000000e+00  0.00000000e+00  0.00000000e+00  3.62525104e-05 
 1.55840000e-10  8.00000000e-01  8.00000000e-01  1.07914749e-04  1.07914751e-04  1.07914750e-04  1.07914749e-04  0.00000000e+00  0.00000000e+00  0.00000000e+00  0.00000000e+00  3.59494994e-05 
 1.59840000e-10  8.00000000e-01  8.00000000e-01  1.07838806e-04  1.07838804e-04  1.07838805e-04  1.07838801e-04  0.00000000e+00  0.00000000e+00  0.00000000e+00  0.00000000e+00  3.59842365e-05 
 1.63840000e-10  8.00000000e-01  8.00000000e-01  1.06947222e-04  1.06947218e-04  1.06947218e-04  1.06947218e-04  0.00000000e+00  0.00000000e+00  0.00000000e+00  0.00000000e+00  3.56930199e-05 
 1.67840000e-10  8.00000000e-01  8.00000000e-01  1.06781770e-04  1.06781771e-04  1.06781769e-04  1.06781773e-04  0.00000000e+00  0.00000000e+00  0.00000000e+00  0.00000000e+00  3.57380869e-05 
 1.71840000e-10  8.00000000e-01  8.00000000e-01  1.06076180e-04  1.06076182e-04  1.06076181e-04  1.06076182e-04  0.00000000e+00  0.00000000e+00  0.00000000e+00  0.00000000e+00  3.54566535e-05 
 1.75840000e-10  8.00000000e-01  8.00000000e-01  1.05865348e-04  1.05865347e-04  1.05865349e-04  1.05865347e-04  0.00000000e+00  0.00000000e+00  0.00000000e+00  0.00000000e+00  3.55103214e-05 
 1.79840000e-10  8.00000000e-01  8.00000000e-01  1.05290837e-04  1.05290838e-04  1.05290836e-04  1.05290835e-04  0.00000000e+00  0.00000000e+00  0.00000000e+00  0.00000000e+00  3.52372608e-05 
 1.83840000e-10  8.00000000e-01  8.00000000e-01  1.05061413e-04  1.05061413e-04  1.05061415e-04  1.05061416e-04  0.00000000e+00  0.00000000e+00  0.00000000e+00  0.00000000e+00  3.52982673e-05 
 1.87840000e-10  8.00000000e-01  8.00000000e-01  1.04581177e-04  1.04581178e-04  1.04581182e-04  1.04581181e-04  0.00000000e+00  0.00000000e+00  0.00000000e+00  0.00000000e+00  3.50324885e-05 
 1.90000000e-10  8.00000000e-01  8.00000000e-01  1.04496330e-04  1.04496331e-04  1.04496327e-04  1.04496328e-04  0.00000000e+00  0.00000000e+00  0.00000000e+00  0.00000000e+00  3.51443121e-05 
 1.90400000e-10  7.84000000e-01  8.00000000e-01  1.04429709e-04  1.04429708e-04  1.04429705e-04  1.04429706e-04  0.00000000e+00  0.00000000e+00  0.00000000e+00  0.00000000e+00  3.49593335e-05 
 1.91200000e-10  7.52000000e-01  8.00000000e-01  1.04350756e-04  1.04350755e-04  1.04350753e-04  1.04350754e-04  0.00000000e+00  0.00000000e+00  0.00000000e+00  0.00000000e+00  3.49888547e-05 
 1.92800000e-10  6.88000000e-01  8.00000000e-01  1.04224219e-04  1.04224218e-04  1.04224217e-04  1.04224218e-04  0.00000000e+00  0.00000000e+00  0.00000000e+00  0.00000000e+00  3.51137171e-05 
 1.96000000e-10  5.60000000e-01  8.00000000e-01  1.03966345e-04  1.03966347e-04  1.03966346e-04  1.03966346e-04  0.00000000e+00  0.00000000e+00  0.00000000e+00  0.00000000e+00  3.49003208e-05 
 2.00000000e-10  4.00000000e-01  8.00000000e-01  1.03665460e-04  1.03665460e-04  1.03665459e-04  1.03665463e-04  0.00000000e+00  0.00000000e+00  0.00000000e+00  0.00000000e+00  3.51767580e-05 
 2.04000000e-10  2.40000000e-01  8.00000000e-01  1.03372928e-04  1.03372927e-04  1.03372928e-04  1.03372929e-04  0.00000000e+00  0.00000000e+00  0.00000000e+00  0.00000000e+00  3.31840414e-05 
 2.08000000e-10  8.00000000e-02  8.00000000e-01  1.03088278e-04  1.03088280e-04  1.03088279e-04  1.03088272e-04  0.00000000e+00  0.00000000e+00  0.00000000e+00  0.00000000e+00  5.13657683e-06 
 2.10000000e-10  0.00000000e+00  8.00000000e-01  1.02977519e-04  1.02977518e-04  1.02977517e-04  1.02977513e-04  0.00000000e+00  0.00000000e+00  0.00000000e+00  0.00000000e+00 -3.07607271e-06 
 2.10400000e-10  0.00000000e+00  8.00000000e-01  1.02963325e-04  1.02963323e-04  1.02963323e-04  1.02963321e-04  0.00000000e+00  0.00000000e+00  0.00000000e+00  0.00000000e+00  1.56759921e-06 
 2.11200000e-10  0.00000000e+00  8.00000000e-01  1.02946834e-04  1.02946832e-04  1.02946833e-04  1.02946832e-04  0.00000000e+00  0.00000000e+00  0.00000000e+00  0.00000000e+00  2.26203049e-05 
 2.12800000e-10  0.00000000e+00  8.00000000e-01  1.02885166e-04  1.02885165e-04  1.02885168e-04  1.02885165e-04  0.00000000e+00  0.00000000e+00  0.00000000e+00  0.00000000e+00  1.08670817e-04 
 2.16000000e-10  0.00000000e+00  8.00000000e-01  1.02548870e-04  1.02548869e-04  1.02548871e-04  1.02548868e-04  0.00000000e+00  0.00000000e+00  0.00000000e+00  0.00000000e+00  2.44312752e-04 
 2.20000000e-10  0.00000000e+00  8.00000000e-01  1.01941349e-04  1.01941350e-04  1.01941349e-04  1.01941350e-04  0.00000000e+00  0.00000000e+00  0.00000000e+00  0.00000000e+00 -3.86003306e-04 
 2.24000000e-10  0.00000000e+00  8.00000000e-01  1.01322656e-04  1.01322658e-04  1.01322654e-04  1.01322655e-04  0.00000000e+00  0.00000000e+00  0.00000000e+00  0.00000000e+00 -3.19421044e-03 
 2.28000000e-10  0.00000000e+00  8.00000000e-01  1.02843422e-04  1.02843422e-04  1.02843423e-04  1.02843423e-04  0.00000000e+00  0.00000000e+00  0.00000000e+00  0.00000000e+00 -5.58094800e-03 
 2.32000000e-10  0.00000000e+00  8.00000000e-01  1.14175697e-04  1.14175694e-04  1.14175695e-04  1.14175699e-04  0.00000000e+00  0.00000000e+00  0.00000000e+00  0.00000000e+00  1.66221372e-02 
 2.36000000e-10  0.00000000e+00  8.00000000e-01  1.40666203e-04  1.40666201e-04  1.40666201e-04  1.40666200e-04  0.00000000e+00  0.00000000e+00  0.00000000e+00  0.00000000e+00  1.18705755e-01 
 2.40000000e-10  0.00000000e+00  8.00000000e-01 -5.72170256e-05 -5.72170245e-05 -5.72170244e-05 -5.72170257e-05  0.00000000e+00  0.00000000e+00  0.00000000e+00  0.00000000e+00  3.00249954e-01 
 2.44000000e-10  0.00000000e+00  8.00000000e-01 -1.31791913e-03 -1.31791913e-03 -1.31791912e-03 -1.31791912e-03  0.00000000e+00  0.00000000e+00  0.00000000e+00  0.00000000e+00  4.95476689e-01 
 2.48000000e-10  0.00000000e+00  8.00000000e-01 -8.78529983e-05 -8.78529977e-05 -8.78529970e-05 -8.78529947e-05  0.00000000e+00  0.00000000e+00  0.00000000e+00  0.00000000e+00  6.45138013e-01 
 2.52000000e-10  0.00000000e+00  8.00000000e-01 -2.89646742e-03 -2.89646742e-03 -2.89646742e-03 -2.89646742e-03  0.00000000e+00  0.00000000e+00  0.00000000e+00  0.00000000e+00  7.42807666e-01 
 2.56000000e-10  0.00000000e+00  8.00000000e-01  2.44043081e-03  2.44043079e-03  2.44043079e-03  2.44043076e-03  0.00000000e+00  0.00000000e+00  0.00000000e+00  0.00000000e+00  7.84556530e-01 
 2.60000000e-10  0.00000000e+00  8.00000000e-01  2.24656258e-01  2.24656258e-01  2.24656258e-01  2.24656258e-01  0.00000000e+00  0.00000000e+00  0.00000000e+00  0.00000000e+00  7.94399483e-01 
 2.64000000e-10  0.00000000e+00  8.00000000e-01  5.75481221e-01  5.75481221e-01  5.75481221e-01  5.75481221e-01  0.00000000e+00  0.00000000e+00  0.00000000e+00  0.00000000e+00  7.98346595e-01 
 2.68000000e-10  0.00000000e+00  8.00000000e-01  7.54183538e-01  7.54183538e-01  7.54183538e-01  7.54183538e-01  0.00000000e+00  0.00000000e+00  0.00000000e+00  0.00000000e+00  7.99023442e-01 
 2.72000000e-10  0.00000000e+00  8.00000000e-01  7.95649122e-01  7.95649122e-01  7.95649122e-01  7.95649122e-01  0.00000000e+00  0.00000000e+00  0.00000000e+00  0.00000000e+00  7.99695470e-01 
 2.76000000e-10  0.00000000e+00  8.00000000e-01  7.98798714e-01  7.98798714e-01  7.98798714e-01  7.98798714e-01  0.00000000e+00  0.00000000e+00  0.00000000e+00  0.00000000e+00  7.99639846e-01 
 2.80000000e-10  0.00000000e+00  8.00000000e-01  8.00213527e-01  8.00213527e-01  8.00213527e-01  8.00213527e-01  0.00000000e+00  0.00000000e+00  0.00000000e+00  0.00000000e+00  7.99866618e-01 
 2.84000000e-10  0.00000000e+00  8.00000000e-01  7.99710299e-01  7.99710299e-01  7.99710299e-01  7.99710299e-01  0.00000000e+00  0.00000000e+00  0.00000000e+00  0.00000000e+00  7.99853884e-01 
 2.88000000e-10  0.00000000e+00  8.00000000e-01  8.00107672e-01  8.00107672e-01  8.00107672e-01  8.00107672e-01  0.00000000e+00  0.00000000e+00  0.00000000e+00  0.00000000e+00  7.99936952e-01 
 2.92000000e-10  0.00000000e+00  8.00000000e-01  7.99841415e-01  7.99841415e-01  7.99841415e-01  7.99841415e-01  0.00000000e+00  0.00000000e+00  0.00000000e+00  0.00000000e+00  7.99922423e-01 
 2.96000000e-10  0.00000000e+00  8.00000000e-01  8.00024018e-01  8.00024018e-01  8.00024018e-01  8.00024018e-01  0.00000000e+00  0.00000000e+00  0.00000000e+00  0.00000000e+00  7.99945738e-01 
 3.00000000e-10  0.00000000e+00  8.00000000e-01  7.99896503e-01  7.99896503e-01  7.99896503e-01  7.99896503e-01  0.00000000e+00  0.00000000e+00  0.00000000e+00  0.00000000e+00  7.99936662e-01 
 3.04000000e-10  0.00000000e+00  8.00000000e-01  7.99985480e-01  7.99985480e-01  7.99985480e-01  7.99985480e-01  0.00000000e+00  0.00000000e+00  0.00000000e+00  0.00000000e+00  7.99942263e-01 
 3.08000000e-10  0.00000000e+00  8.00000000e-01  7.99922019e-01  7.99922019e-01  7.99922019e-01  7.99922019e-01  0.00000000e+00  0.00000000e+00  0.00000000e+00  0.00000000e+00  7.99938112e-01 
 3.12000000e-10  0.00000000e+00  8.00000000e-01  7.99967326e-01  7.99967326e-01  7.99967326e-01  7.99967326e-01  0.00000000e+00  0.00000000e+00  0.00000000e+00  0.00000000e+00  7.99940793e-01 
 3.16000000e-10  0.00000000e+00  8.00000000e-01  7.99934336e-01  7.99934336e-01  7.99934336e-01  7.99934336e-01  0.00000000e+00  0.00000000e+00  0.00000000e+00  0.00000000e+00  7.99940352e-01 
 3.20000000e-10  0.00000000e+00  8.00000000e-01  7.99958178e-01  7.99958178e-01  7.99958178e-01  7.99958178e-01  0.00000000e+00  0.00000000e+00  0.00000000e+00  0.00000000e+00  7.99941934e-01 
 3.24000000e-10  0.00000000e+00  8.00000000e-01  7.99940541e-01  7.99940541e-01  7.99940541e-01  7.99940541e-01  0.00000000e+00  0.00000000e+00  0.00000000e+00  0.00000000e+00  7.99942282e-01 
 3.28000000e-10  0.00000000e+00  8.00000000e-01  7.99953650e-01  7.99953650e-01  7.99953650e-01  7.99953650e-01  0.00000000e+00  0.00000000e+00  0.00000000e+00  0.00000000e+00  7.99942665e-01 
 3.32000000e-10  0.00000000e+00  8.00000000e-01  7.99943702e-01  7.99943702e-01  7.99943702e-01  7.99943702e-01  0.00000000e+00  0.00000000e+00  0.00000000e+00  0.00000000e+00  7.99943137e-01 
 3.36000000e-10  0.00000000e+00  8.00000000e-01  7.99951377e-01  7.99951377e-01  7.99951377e-01  7.99951377e-01  0.00000000e+00  0.00000000e+00  0.00000000e+00  0.00000000e+00  7.99942944e-01 
 3.40000000e-10  0.00000000e+00  8.00000000e-01  7.99945405e-01  7.99945405e-01  7.99945405e-01  7.99945405e-01  0.00000000e+00  0.00000000e+00  0.00000000e+00  0.00000000e+00  7.99943530e-01 
 3.44000000e-10  0.00000000e+00  8.00000000e-01  7.99950076e-01  7.99950076e-01  7.99950076e-01  7.99950076e-01  0.00000000e+00  0.00000000e+00  0.00000000e+00  0.00000000e+00  7.99943079e-01 
