 time            v(Clk)          v(Wr)           i(Vdd)         
 6.40000000e-14  8.00000000e-01  8.00000000e-01 -1.06347691e-01 
 1.28000000e-13  8.00000000e-01  8.00000000e-01 -2.10025824e-03 
 2.56000000e-13  8.00000000e-01  8.00000000e-01 -7.30918102e-04 
 5.12000000e-13  8.00000000e-01  8.00000000e-01 -1.92396980e-03 
 1.02400000e-12  8.00000000e-01  8.00000000e-01 -4.99147397e-04 
 2.04800000e-12  8.00000000e-01  8.00000000e-01 -1.56095055e-03 
 4.09600000e-12  8.00000000e-01  8.00000000e-01 -1.19521780e-04 
 6.40000000e-12  8.00000000e-01  8.00000000e-01 -1.32441135e-03 
 6.80960000e-12  8.00000000e-01  8.00000000e-01 -6.91137693e-04 
 7.62880000e-12  8.00000000e-01  8.00000000e-01 -6.73425505e-04 
 9.26720000e-12  8.00000000e-01  8.00000000e-01 -6.19075729e-04 
 1.25440000e-11  8.00000000e-01  8.00000000e-01 -5.51833760e-04 
 1.89440000e-11  8.00000000e-01  8.00000000e-01 -5.97571684e-04 
 2.53440000e-11  8.00000000e-01  8.00000000e-01 -6.88553646e-04 
 3.17440000e-11  8.00000000e-01  8.00000000e-01 -4.92282001e-04 
 3.81440000e-11  8.00000000e-01  8.00000000e-01 -3.10234754e-04 
 4.45440000e-11  8.00000000e-01  8.00000000e-01 -2.18469391e-04 
 5.09440000e-11  8.00000000e-01  8.00000000e-01 -1.58784945e-04 
 5.73440000e-11  8.00000000e-01  8.00000000e-01 -6.42733115e-05 
 6.37440000e-11  8.00000000e-01  8.00000000e-01 -4.34188226e-05 
 7.01440000e-11  8.00000000e-01  8.00000000e-01 -2.76768729e-05 
 7.65440000e-11  8.00000000e-01  8.00000000e-01 -2.08593255e-05 
 8.29440000e-11  8.00000000e-01  8.00000000e-01 -1.77708279e-05 
 8.93440000e-11  8.00000000e-01  8.00000000e-01 -1.17458822e-05 
 9.57440000e-11  8.00000000e-01  8.00000000e-01 -1.25998345e-05 
 1.02144000e-10  8.00000000e-01  8.00000000e-01 -6.88651819e-06 
 1.08544000e-10  8.00000000e-01  8.00000000e-01 -9.48596804e-06 
 1.14944000e-10  8.00000000e-01  8.00000000e-01 -4.11238476e-06 
 1.21344000e-10  8.00000000e-01  8.00000000e-01 -7.59511471e-06 
 1.27744000e-10  8.00000000e-01  8.00000000e-01 -2.50558736e-06 
 1.34144000e-10  8.00000000e-01  8.00000000e-01 -6.44538063e-06 
 1.40544000e-10  8.00000000e-01  8.00000000e-01 -1.56228555e-06 
 1.46944000e-10  8.00000000e-01  8.00000000e-01 -5.73663385e-06 
 1.47500000e-10  8.00000000e-01  8.00000000e-01 -1.23979043e-06 
 1.48140000e-10  7.79520000e-01  8.00000000e-01 -3.94730067e-06 
 1.49420000e-10  7.38560000e-01  8.00000000e-01 -3.79080627e-06 
 1.51980000e-10  6.56640000e-01  8.00000000e-01 -3.79391335e-06 
 1.57100000e-10  4.92800000e-01  8.00000000e-01 -5.47882928e-06 
 1.63500000e-10  2.88000000e-01  8.00000000e-01 -8.40427139e-06 
 1.69900000e-10  8.32000000e-02  8.00000000e-01 -1.99053627e-05 
 1.72500000e-10  2.22044605e-16  8.00000000e-01 -1.90727865e-05 
 1.73140000e-10  0.00000000e+00  8.00000000e-01 -1.71257452e-05 
 1.74420000e-10  0.00000000e+00  8.00000000e-01 -1.45682218e-05 
 1.76980000e-10  0.00000000e+00  8.00000000e-01 -1.26878551e-05 
 1.82100000e-10  0.00000000e+00  8.00000000e-01 -2.37249990e-05 
 1.88500000e-10  0.00000000e+00  8.00000000e-01 -4.53687776e-05 
 1.94900000e-10  0.00000000e+00  8.00000000e-01 -9.38063409e-05 
 2.01300000e-10  0.00000000e+00  8.00000000e-01 -1.53567146e-04 
 2.07700000e-10  0.00000000e+00  8.00000000e-01 -7.63340547e-05 
 2.14100000e-10  0.00000000e+00  8.00000000e-01 -5.61663067e-05 
 2.20500000e-10  0.00000000e+00  8.00000000e-01 -3.93510217e-05 
 2.26900000e-10  0.00000000e+00  8.00000000e-01 -6.54922114e-05 
 2.33300000e-10  0.00000000e+00  8.00000000e-01 -8.19283093e-05 
 2.39700000e-10  0.00000000e+00  8.00000000e-01 -7.62489784e-05 
 2.46100000e-10  0.00000000e+00  8.00000000e-01 -8.00089322e-05 
 2.52500000e-10  0.00000000e+00  8.00000000e-01 -9.62787976e-05 
 2.58900000e-10  0.00000000e+00  8.00000000e-01 -1.34644352e-04 
 2.65300000e-10  0.00000000e+00  8.00000000e-01 -1.41484444e-04 
 2.71700000e-10  0.00000000e+00  8.00000000e-01 -1.45582775e-04 
 2.78100000e-10  0.00000000e+00  8.00000000e-01 -1.46711614e-04 
 2.84500000e-10  0.00000000e+00  8.00000000e-01 -1.35783162e-04 
 2.90900000e-10  0.00000000e+00  8.00000000e-01 -1.16014693e-04 
 2.97300000e-10  0.00000000e+00  8.00000000e-01 -9.41882116e-05 
 3.03700000e-10  0.00000000e+00  8.00000000e-01 -5.46095199e-05 
 3.07500000e-10  8.27180613e-16  8.00000000e-01 -4.55378830e-05 
 3.08140000e-10  2.04800000e-02  8.00000000e-01 -4.05659026e-05 
 3.09420000e-10  6.14400000e-02  8.00000000e-01 -3.74095171e-05 
 3.11980000e-10  1.43360000e-01  8.00000000e-01 -3.27912721e-05 
 3.17100000e-10  3.07200000e-01  8.00000000e-01 -2.87361215e-05 
 3.23500000e-10  5.12000000e-01  8.00000000e-01 -2.99086630e-05 
 3.29900000e-10  7.16800000e-01  8.00000000e-01 -3.11708536e-05 
 3.32500000e-10  8.00000000e-01  8.00000000e-01 -3.07673509e-05 
 3.33140000e-10  8.00000000e-01  8.00000000e-01 -3.27601022e-05 
 3.34420000e-10  8.00000000e-01  8.00000000e-01 -3.30316146e-05 
 3.36980000e-10  8.00000000e-01  8.00000000e-01 -2.93509734e-05 
 3.42100000e-10  8.00000000e-01  8.00000000e-01 -3.54673509e-05 
 3.48500000e-10  8.00000000e-01  8.00000000e-01 -5.05906975e-05 
 3.54900000e-10  8.00000000e-01  8.00000000e-01 -8.14249055e-05 
 3.61300000e-10  8.00000000e-01  8.00000000e-01 -1.50251592e-04 
 3.67700000e-10  8.00000000e-01  8.00000000e-01 -2.06520779e-04 
 3.74100000e-10  8.00000000e-01  8.00000000e-01 -1.13237798e-04 
 3.80500000e-10  8.00000000e-01  8.00000000e-01 -1.33603792e-04 
 3.86900000e-10  8.00000000e-01  8.00000000e-01 -1.00618394e-04 
 3.93300000e-10  8.00000000e-01  8.00000000e-01 -1.10980522e-04 
 3.99700000e-10  8.00000000e-01  8.00000000e-01 -8.78488712e-05 
 4.06100000e-10  8.00000000e-01  8.00000000e-01 -7.89499315e-05 
 4.12500000e-10  8.00000000e-01  8.00000000e-01 -3.90539141e-05 
 4.18900000e-10  8.00000000e-01  8.00000000e-01 -2.59546512e-05 
 4.25300000e-10  8.00000000e-01  8.00000000e-01 -1.17346294e-05 
 4.31700000e-10  8.00000000e-01  8.00000000e-01 -1.43816250e-05 
 4.38100000e-10  8.00000000e-01  8.00000000e-01 -6.15538913e-06 
 4.44500000e-10  8.00000000e-01  8.00000000e-01 -1.06907755e-05 
 4.50900000e-10  8.00000000e-01  8.00000000e-01 -3.52929459e-06 
 4.57300000e-10  8.00000000e-01  8.00000000e-01 -8.42920905e-06 
 4.63700000e-10  8.00000000e-01  8.00000000e-01 -1.93615433e-06 
 4.67500000e-10  8.00000000e-01  8.00000000e-01 -7.23283922e-06 
 4.68140000e-10  7.79520000e-01  8.00000000e-01 -4.90504991e-06 
 4.69420000e-10  7.38560000e-01  8.00000000e-01 -4.68818417e-06 
 4.71980000e-10  6.56640000e-01  8.00000000e-01 -4.56426763e-06 
 4.77100000e-10  4.92800000e-01  8.00000000e-01 -6.11025153e-06 
 4.83500000e-10  2.88000000e-01  8.00000000e-01 -8.83766181e-06 
 4.89900000e-10  8.32000000e-02  8.00000000e-01 -2.03164700e-05 
 4.92500000e-10  0.00000000e+00  8.00000000e-01 -1.93370694e-05 
 4.93140000e-10  0.00000000e+00  8.00000000e-01 -1.73985082e-05 
 4.94420000e-10  0.00000000e+00  8.00000000e-01 -1.48190099e-05 
 4.96980000e-10  0.00000000e+00  8.00000000e-01 -1.29120472e-05 
 5.02100000e-10  0.00000000e+00  8.00000000e-01 -2.39309335e-05 
 5.08500000e-10  0.00000000e+00  8.00000000e-01 -4.55586625e-05 
 5.14900000e-10  0.00000000e+00  8.00000000e-01 -9.36743742e-05 
 5.21300000e-10  0.00000000e+00  8.00000000e-01 -1.54065773e-04 
 5.27700000e-10  0.00000000e+00  8.00000000e-01 -8.59377697e-05 
 5.34100000e-10  0.00000000e+00  8.00000000e-01 -7.56335965e-05 
 5.40500000e-10  0.00000000e+00  8.00000000e-01 -4.92836919e-05 
 5.46900000e-10  0.00000000e+00  8.00000000e-01 -6.46857474e-05 
 5.53300000e-10  0.00000000e+00  8.00000000e-01 -8.11514265e-05 
 5.59700000e-10  0.00000000e+00  8.00000000e-01 -7.57304575e-05 
 5.66100000e-10  0.00000000e+00  8.00000000e-01 -8.31247447e-05 
 5.72500000e-10  0.00000000e+00  8.00000000e-01 -1.07221848e-04 
 5.78900000e-10  0.00000000e+00  8.00000000e-01 -1.43145737e-04 
 5.85300000e-10  0.00000000e+00  8.00000000e-01 -1.38996041e-04 
 5.91700000e-10  0.00000000e+00  8.00000000e-01 -1.47929301e-04 
 5.98100000e-10  0.00000000e+00  8.00000000e-01 -1.41185609e-04 
 6.04500000e-10  0.00000000e+00  8.00000000e-01 -1.31716125e-04 
 6.10900000e-10  0.00000000e+00  8.00000000e-01 -1.05811326e-04 
 6.17300000e-10  0.00000000e+00  8.00000000e-01 -8.09842126e-05 
 6.23700000e-10  0.00000000e+00  8.00000000e-01 -4.35721024e-05 
 6.27500000e-10  0.00000000e+00  8.00000000e-01 -4.02839624e-05 
 6.28140000e-10  2.04800000e-02  8.00000000e-01 -3.51746574e-05 
 6.29420000e-10  6.14400000e-02  8.00000000e-01 -3.28169108e-05 
 6.31980000e-10  1.43360000e-01  8.00000000e-01 -2.95508825e-05 
 6.37100000e-10  3.07200000e-01  8.00000000e-01 -2.70407584e-05 
 6.43500000e-10  5.12000000e-01  8.00000000e-01 -2.90425221e-05 
 6.49900000e-10  7.16800000e-01  8.00000000e-01 -3.06965680e-05 
 6.52500000e-10  8.00000000e-01  8.00000000e-01 -3.03083584e-05 
 6.53140000e-10  8.00000000e-01  8.00000000e-01 -3.18562455e-05 
 6.54420000e-10  8.00000000e-01  8.00000000e-01 -3.20695246e-05 
 6.56980000e-10  8.00000000e-01  8.00000000e-01 -2.84570633e-05 
 6.62100000e-10  8.00000000e-01  8.00000000e-01 -3.46224201e-05 
 6.68500000e-10  8.00000000e-01  8.00000000e-01 -4.98632529e-05 
 6.74900000e-10  8.00000000e-01  8.00000000e-01 -8.07737293e-05 
 6.81300000e-10  8.00000000e-01  8.00000000e-01 -1.49627195e-04 
 6.87700000e-10  8.00000000e-01  8.00000000e-01 -2.07825200e-04 
 6.94100000e-10  8.00000000e-01  8.00000000e-01 -1.18625423e-04 
 7.00500000e-10  8.00000000e-01  8.00000000e-01 -1.37804549e-04 
 7.06900000e-10  8.00000000e-01  8.00000000e-01 -1.14020249e-04 
 7.13300000e-10  8.00000000e-01  8.00000000e-01 -1.27478769e-04 
 7.19700000e-10  8.00000000e-01  8.00000000e-01 -8.80817789e-05 
 7.26100000e-10  8.00000000e-01  8.00000000e-01 -6.84361394e-05 
 7.32500000e-10  8.00000000e-01  8.00000000e-01 -3.96194326e-05 
 7.38900000e-10  8.00000000e-01  8.00000000e-01 -4.10189976e-05 
 7.45300000e-10  8.00000000e-01  8.00000000e-01 -1.34183885e-05 
 7.51700000e-10  8.00000000e-01  8.00000000e-01 -1.74243476e-05 
 7.58100000e-10  8.00000000e-01  8.00000000e-01 -5.60614916e-06 
 7.64500000e-10  8.00000000e-01  8.00000000e-01 -1.17710269e-05 
 7.70900000e-10  8.00000000e-01  8.00000000e-01 -2.76990281e-06 
 7.77300000e-10  8.00000000e-01  8.00000000e-01 -9.13149181e-06 
 7.83700000e-10  8.00000000e-01  8.00000000e-01 -1.21597592e-06 
 7.87500000e-10  8.00000000e-01  8.00000000e-01 -7.78329371e-06 
 7.88140000e-10  7.79520000e-01  8.00000000e-01 -4.90213485e-06 
 7.89420000e-10  7.38560000e-01  8.00000000e-01 -4.60148001e-06 
 7.91980000e-10  6.56640000e-01  8.00000000e-01 -4.52136423e-06 
 7.97100000e-10  4.92800000e-01  8.00000000e-01 -6.02011137e-06 
 8.03500000e-10  2.88000000e-01  8.00000000e-01 -8.78372295e-06 
 8.09900000e-10  8.32000000e-02  8.00000000e-01 -2.02246885e-05 
 8.12500000e-10  0.00000000e+00  8.00000000e-01 -1.92792777e-05 
 8.13140000e-10  0.00000000e+00  8.00000000e-01 -1.73262554e-05 
 8.14420000e-10  0.00000000e+00  8.00000000e-01 -1.47444193e-05 
 8.16980000e-10  0.00000000e+00  8.00000000e-01 -1.28395173e-05 
 8.22100000e-10  0.00000000e+00  8.00000000e-01 -2.38574787e-05 
 8.28500000e-10  0.00000000e+00  8.00000000e-01 -4.54894921e-05 
 8.34900000e-10  0.00000000e+00  8.00000000e-01 -9.38952155e-05 
 8.41300000e-10  0.00000000e+00  8.00000000e-01 -1.55151702e-04 
 8.47700000e-10  0.00000000e+00  8.00000000e-01 -8.63022706e-05 
 8.54100000e-10  0.00000000e+00  8.00000000e-01 -7.56553157e-05 
 8.60500000e-10  0.00000000e+00  8.00000000e-01 -4.92031981e-05 
 8.66900000e-10  0.00000000e+00  8.00000000e-01 -6.47249445e-05 
 8.73300000e-10  0.00000000e+00  8.00000000e-01 -8.12479502e-05 
 8.79700000e-10  0.00000000e+00  8.00000000e-01 -7.54490447e-05 
 8.86100000e-10  0.00000000e+00  8.00000000e-01 -8.28679867e-05 
 8.92500000e-10  0.00000000e+00  8.00000000e-01 -1.06999975e-04 
 8.98900000e-10  0.00000000e+00  8.00000000e-01 -1.43061241e-04 
 9.05300000e-10  0.00000000e+00  8.00000000e-01 -1.38848378e-04 
 9.11700000e-10  0.00000000e+00  8.00000000e-01 -1.47877449e-04 
 9.18100000e-10  0.00000000e+00  8.00000000e-01 -1.41059836e-04 
 9.24500000e-10  0.00000000e+00  8.00000000e-01 -1.31675627e-04 
 9.30900000e-10  0.00000000e+00  8.00000000e-01 -1.05693260e-04 
 9.37300000e-10  0.00000000e+00  8.00000000e-01 -8.09438698e-05 
 9.43700000e-10  0.00000000e+00  8.00000000e-01 -4.34506607e-05 
 9.47500000e-10  2.48154184e-15  8.00000000e-01 -4.02392764e-05 
 9.48140000e-10  2.04800000e-02  8.00000000e-01 -3.47178440e-05 
 9.49420000e-10  6.14400000e-02  8.00000000e-01 -3.23233975e-05 
 9.51980000e-10  1.43360000e-01  8.00000000e-01 -2.90172001e-05 
 9.57100000e-10  3.07200000e-01  8.00000000e-01 -2.64878445e-05 
 9.63500000e-10  5.12000000e-01  8.00000000e-01 -2.84624206e-05 
 9.69900000e-10  7.16800000e-01  8.00000000e-01 -3.00253980e-05 
 9.72500000e-10  8.00000000e-01  8.00000000e-01 -2.96947585e-05 
 9.73140000e-10  8.00000000e-01  8.00000000e-01 -3.17035359e-05 
 9.74420000e-10  8.00000000e-01  8.00000000e-01 -3.20025919e-05 
 9.76980000e-10  8.00000000e-01  8.00000000e-01 -2.83731679e-05 
 9.82100000e-10  8.00000000e-01  8.00000000e-01 -3.45760117e-05 
 9.88500000e-10  8.00000000e-01  8.00000000e-01 -4.97916804e-05 
 9.94900000e-10  8.00000000e-01  8.00000000e-01 -8.07270093e-05 
 1.00130000e-09  8.00000000e-01  8.00000000e-01 -1.49652991e-04 
 1.00770000e-09  8.00000000e-01  8.00000000e-01 -2.07755985e-04 
 1.01410000e-09  8.00000000e-01  8.00000000e-01 -1.20774579e-04 
 1.02050000e-09  8.00000000e-01  8.00000000e-01 -1.37151416e-04 
 1.02690000e-09  8.00000000e-01  8.00000000e-01 -9.98237656e-05 
 1.03330000e-09  8.00000000e-01  8.00000000e-01 -1.11666334e-04 
 1.03970000e-09  8.00000000e-01  8.00000000e-01 -8.66297539e-05 
 1.04610000e-09  8.00000000e-01  8.00000000e-01 -7.97110659e-05 
 1.05250000e-09  8.00000000e-01  8.00000000e-01 -3.87515732e-05 
 1.05890000e-09  8.00000000e-01  8.00000000e-01 -2.66963630e-05 
 1.06530000e-09  8.00000000e-01  8.00000000e-01 -1.11434018e-05 
 1.07170000e-09  8.00000000e-01  8.00000000e-01 -1.47310967e-05 
 1.07810000e-09  8.00000000e-01  8.00000000e-01 -5.59272326e-06 
 1.08450000e-09  8.00000000e-01  8.00000000e-01 -1.09797765e-05 
 1.09090000e-09  8.00000000e-01  8.00000000e-01 -3.02875864e-06 
 1.09730000e-09  8.00000000e-01  8.00000000e-01 -8.67464024e-06 
 1.10370000e-09  8.00000000e-01  8.00000000e-01 -1.47967654e-06 
 1.10750000e-09  8.00000000e-01  8.00000000e-01 -7.43807590e-06 
 1.10814000e-09  7.79520000e-01  8.00000000e-01 -4.81172404e-06 
 1.10942000e-09  7.38560000e-01  8.00000000e-01 -4.57135409e-06 
 1.11198000e-09  6.56640000e-01  8.00000000e-01 -4.45786902e-06 
 1.11710000e-09  4.92800000e-01  8.00000000e-01 -6.00048355e-06 
 1.12350000e-09  2.88000000e-01  8.00000000e-01 -8.73538321e-06 
 1.12990000e-09  8.32000000e-02  8.00000000e-01 -2.02156661e-05 
 1.13250000e-09  0.00000000e+00  8.00000000e-01 -1.92383156e-05 
 1.13314000e-09  0.00000000e+00  8.00000000e-01 -1.73014455e-05 
 1.13442000e-09  0.00000000e+00  8.00000000e-01 -1.47215533e-05 
 1.13698000e-09  0.00000000e+00  8.00000000e-01 -1.28165137e-05 
 1.14210000e-09  0.00000000e+00  8.00000000e-01 -2.38375045e-05 
 1.14850000e-09  0.00000000e+00  8.00000000e-01 -4.54747028e-05 
 1.15490000e-09  0.00000000e+00  8.00000000e-01 -9.42017383e-05 
 1.16130000e-09  0.00000000e+00  8.00000000e-01 -1.62115055e-04 
 1.16770000e-09  0.00000000e+00  8.00000000e-01 -9.32663055e-05 
 1.17410000e-09  0.00000000e+00  8.00000000e-01 -7.58218653e-05 
 1.18050000e-09  0.00000000e+00  8.00000000e-01 -4.96124568e-05 
 1.18690000e-09  0.00000000e+00  8.00000000e-01 -6.48589827e-05 
 1.19330000e-09  0.00000000e+00  8.00000000e-01 -8.14872189e-05 
 1.19970000e-09  0.00000000e+00  8.00000000e-01 -7.52769976e-05 
 1.20610000e-09  0.00000000e+00  8.00000000e-01 -8.28925229e-05 
 1.21250000e-09  0.00000000e+00  8.00000000e-01 -1.06832594e-04 
 1.21890000e-09  0.00000000e+00  8.00000000e-01 -1.43167344e-04 
 1.22530000e-09  0.00000000e+00  8.00000000e-01 -1.38681236e-04 
 1.23170000e-09  0.00000000e+00  8.00000000e-01 -1.47999458e-04 
 1.23810000e-09  0.00000000e+00  8.00000000e-01 -1.40875462e-04 
 1.24450000e-09  0.00000000e+00  8.00000000e-01 -1.31792795e-04 
 1.25090000e-09  0.00000000e+00  8.00000000e-01 -1.05501277e-04 
 1.25730000e-09  0.00000000e+00  8.00000000e-01 -8.10451993e-05 
 1.26370000e-09  0.00000000e+00  8.00000000e-01 -4.32535220e-05 
 1.26750000e-09  2.48154184e-15  8.00000000e-01 -4.03516439e-05 
 1.26814000e-09  2.04800000e-02  8.00000000e-01 -3.54276013e-05 
 1.26942000e-09  6.14400000e-02  8.00000000e-01 -3.31029389e-05 
 1.27198000e-09  1.43360000e-01  8.00000000e-01 -2.98714124e-05 
 1.27710000e-09  3.07200000e-01  8.00000000e-01 -2.73816073e-05 
 1.28350000e-09  5.12000000e-01  8.00000000e-01 -2.94107955e-05 
 1.28990000e-09  7.16800000e-01  8.00000000e-01 -3.11612079e-05 
 1.29250000e-09  8.00000000e-01  8.00000000e-01 -3.07112968e-05 
 1.29314000e-09  8.00000000e-01  8.00000000e-01 -3.17954798e-05 
 1.29442000e-09  8.00000000e-01  8.00000000e-01 -3.19621032e-05 
 1.29698000e-09  8.00000000e-01  8.00000000e-01 -2.83226298e-05 
 1.30210000e-09  8.00000000e-01  8.00000000e-01 -3.44882854e-05 
 1.30850000e-09  8.00000000e-01  8.00000000e-01 -4.97300102e-05 
 1.31490000e-09  8.00000000e-01  8.00000000e-01 -8.06509706e-05 
 1.32130000e-09  8.00000000e-01  8.00000000e-01 -1.49460403e-04 
 1.32770000e-09  8.00000000e-01  8.00000000e-01 -2.09357206e-04 
 1.33410000e-09  8.00000000e-01  8.00000000e-01 -1.24477640e-04 
 1.34050000e-09  8.00000000e-01  8.00000000e-01 -1.44687578e-04 
 1.34690000e-09  8.00000000e-01  8.00000000e-01 -1.20811983e-04 
 1.35330000e-09  8.00000000e-01  8.00000000e-01 -1.36695807e-04 
 1.35970000e-09  8.00000000e-01  8.00000000e-01 -1.08557270e-04 
 1.36610000e-09  8.00000000e-01  8.00000000e-01 -9.17169171e-05 
 1.37250000e-09  8.00000000e-01  8.00000000e-01 -5.23879537e-05 
 1.37890000e-09  8.00000000e-01  8.00000000e-01 -4.10420257e-05 
 1.38530000e-09  8.00000000e-01  8.00000000e-01 -1.47680026e-05 
 1.39170000e-09  8.00000000e-01  8.00000000e-01 -1.74787748e-05 
 1.39810000e-09  8.00000000e-01  8.00000000e-01 -6.10300413e-06 
 1.40450000e-09  8.00000000e-01  8.00000000e-01 -1.17534772e-05 
 1.41090000e-09  8.00000000e-01  8.00000000e-01 -2.93436323e-06 
 1.41730000e-09  8.00000000e-01  8.00000000e-01 -9.21341301e-06 
 1.42370000e-09  8.00000000e-01  8.00000000e-01 -1.24355613e-06 
 1.42750000e-09  8.00000000e-01  8.00000000e-01 -7.95678268e-06 
 1.42814000e-09  7.79520000e-01  8.00000000e-01 -4.89838506e-06 
 1.42942000e-09  7.38560000e-01  8.00000000e-01 -4.71275403e-06 
 1.43198000e-09  6.56640000e-01  8.00000000e-01 -4.55389419e-06 
 1.43710000e-09  4.92800000e-01  8.00000000e-01 -6.11661325e-06 
 1.44350000e-09  2.88000000e-01  8.00000000e-01 -8.80960436e-06 
 1.44990000e-09  8.32000000e-02  8.00000000e-01 -2.03122430e-05 
 1.45250000e-09  0.00000000e+00  8.00000000e-01 -1.93019644e-05 
 1.45314000e-09  0.00000000e+00  8.00000000e-01 -1.73795248e-05 
 1.45442000e-09  0.00000000e+00  8.00000000e-01 -1.47978818e-05 
 1.45698000e-09  0.00000000e+00  8.00000000e-01 -1.28914147e-05 
 1.46210000e-09  0.00000000e+00  8.00000000e-01 -2.39073716e-05 
 1.46850000e-09  0.00000000e+00  8.00000000e-01 -4.55381203e-05 
 1.47490000e-09  0.00000000e+00  8.00000000e-01 -9.42320574e-05 
 1.48130000e-09  0.00000000e+00  8.00000000e-01 -1.56298937e-04 
 1.48770000e-09  0.00000000e+00  8.00000000e-01 -8.65661712e-05 
 1.49410000e-09  0.00000000e+00  8.00000000e-01 -7.58601709e-05 
 1.50050000e-09  0.00000000e+00  8.00000000e-01 -4.92874895e-05 
 1.50690000e-09  0.00000000e+00  8.00000000e-01 -6.49229635e-05 
 1.51330000e-09  0.00000000e+00  8.00000000e-01 -8.14592017e-05 
 1.51970000e-09  0.00000000e+00  8.00000000e-01 -7.52561518e-05 
 1.52610000e-09  0.00000000e+00  8.00000000e-01 -8.27579039e-05 
 1.53250000e-09  0.00000000e+00  8.00000000e-01 -1.06907530e-04 
 1.53890000e-09  0.00000000e+00  8.00000000e-01 -1.43081225e-04 
 1.54530000e-09  0.00000000e+00  8.00000000e-01 -1.38791264e-04 
